(1682280122.209191) can0 231#00A32C0A00443100
(1682280122.211050) can0 2D0#00A32C0A00444200
(1682280122.213174) can0 22F#00A32C2700000E00
(1682280122.221262) can0 385#00
(1682280122.238466) can0 37D#80FF00230000
(1682280122.342257) can0 685#00
(1682280122.342725) can0 085#00140000001AE876
(1682280122.343059) can0 185#00000000
(1682280122.343533) can0 285#00A2852B00441201
(1682280122.345895) can0 301#0040
(1682280122.546314) can0 3AC#C0FF00000000
(1682280122.572484) can0 37D#80FF00290000
(1682280122.658595) can0 32C#80FF00010000
(1682280122.703265) can0 31A#C0FF00000000
(1682280122.822583) can0 368#80FF00010000
(1682280122.825618) can0 340#80FF00010000
(1682280122.830429) can0 367#C0FF00000000
(1682280122.844314) can0 3A1#00
(1682280122.844540) can0 3D0#00
(1682280122.844901) can0 601#00
(1682280122.845680) can0 001#00180000001B2EAD
(1682280122.846324) can0 101#00000000
(1682280122.847083) can0 201#00B8012400000100
(1682280122.850335) can0 32F#00
(1682280122.855131) can0 701#00092BBCFFFF0000
(1682280122.864081) can0 331#00
(1682280122.867386) can0 3C9#00
(1682280122.909414) can0 35C#80FF00010000
(1682280123.053547) can0 02145C11#002B
(1682280123.054271) can0 01718511#002B0D8057
(1682280123.067578) can0 3E3#C0FF00000000
(1682280123.137021) can0 62C#00
(1682280123.137577) can0 0E3#02140000001B3004
(1682280123.138061) can0 067#02140000001B3004
(1682280123.138573) can0 0AC#02140000001B3004
(1682280123.139004) can0 01A#02140000001B3004
(1682280123.139498) can0 068#02140000001B3004
(1682280123.141142) can0 05C#02140000001B3004
(1682280123.143244) can0 02C#02140000001B3004
(1682280123.145360) can0 040#02140000001B3004
(1682280123.146427) can0 37D#80FF00280000
(1682280123.147281) can0 07D#02140000001B3004
(1682280123.149238) can0 0C9#02140000001B3004
(1682280123.151108) can0 0A1#02140000001B3004
(1682280123.153240) can0 031#02140000001B3004
(1682280123.155350) can0 0D0#02140000001B3004
(1682280123.157150) can0 02F#02140000001B3004
(1682280123.158955) can0 1E3#00000000
(1682280123.162005) can0 167#00000000
(1682280123.162959) can0 1AC#00000000
(1682280123.164977) can0 11A#00000000
(1682280123.166987) can0 168#00000000
(1682280123.168975) can0 15C#00000000
(1682280123.170958) can0 12C#00000000
(1682280123.173100) can0 140#00000000
(1682280123.175214) can0 17D#00000000
(1682280123.176981) can0 1C9#00000000
(1682280123.178964) can0 1A1#00000000
(1682280123.182005) can0 131#00000000
(1682280123.183097) can0 1D0#00000000
(1682280123.185205) can0 12F#00000000
(1682280123.187258) can0 2E3#00A32C2100691011
(1682280123.189088) can0 267#00A32C2100002011
(1682280123.191087) can0 2AC#00A32C2100603111
(1682280123.193230) can0 21A#00A32C2100604211
(1682280123.195091) can0 268#00A32C1E003D1011
(1682280123.197253) can0 25C#00A32C1E008F2011
(1682280123.199099) can0 22C#00A32C1E00033019
(1682280123.201082) can0 240#00A32C1E00044011
(1682280123.203204) can0 27D#00A32C1E00055019
(1682280123.205329) can0 2C9#00A32C0A00431000
(1682280123.207102) can0 2A1#00A32C0A00452000
(1682280123.209200) can0 231#00A32C0A00443100
(1682280123.212108) can0 2D0#00A32C0A00444200
(1682280123.213071) can0 22F#00A32C2700000E00
(1682280123.216208) can0 00042F11#002B
(1682280123.216942) can0 00BD0111#002B0D7AE1
(1682280123.222265) can0 385#00
(1682280123.342308) can0 685#00
(1682280123.342773) can0 085#00140000001AE876
(1682280123.343094) can0 185#00000000
(1682280123.343574) can0 285#00A2852B00441201
(1682280123.346914) can0 301#0040
(1682280123.480389) can0 37D#80FF00260000
(1682280123.547387) can0 3AC#C0FF00000000
(1682280123.659488) can0 32C#80FF00010000
(1682280123.704611) can0 31A#C0FF00000000
(1682280123.814617) can0 37D#80FF00290000
(1682280123.823387) can0 368#80FF00010000
(1682280123.826362) can0 340#80FF00010000
(1682280123.832269) can0 367#C0FF00000000
(1682280123.844896) can0 601#00
(1682280123.845293) can0 3A1#00
(1682280123.845768) can0 001#00180000001B2EAD
(1682280123.846030) can0 3D0#00
(1682280123.846409) can0 101#00000000
(1682280123.847104) can0 201#00B8012400000100
(1682280123.852198) can0 32F#00
(1682280123.855141) can0 701#00092BBDFFFF0000
(1682280123.865514) can0 331#00
(1682280123.868228) can0 3C9#00
(1682280123.910415) can0 35C#80FF00010000
(1682280124.063532) can0 02145C11#002B
(1682280124.064265) can0 01718511#002B0D8193
(1682280124.068429) can0 3E3#C0FF00000000
(1682280124.137033) can0 62C#00
(1682280124.137505) can0 040#02140000001B3004
(1682280124.137976) can0 0E3#02140000001B3004
(1682280124.138452) can0 067#02140000001B3004
(1682280124.138931) can0 0AC#02140000001B3004
(1682280124.139406) can0 01A#02140000001B3004
(1682280124.142154) can0 068#02140000001B3004
(1682280124.143249) can0 05C#02140000001B3004
(1682280124.145354) can0 02C#02140000001B3004
(1682280124.147312) can0 07D#02140000001B3004
(1682280124.149104) can0 0C9#02140000001B3004
(1682280124.152133) can0 0A1#02140000001B3004
(1682280124.153107) can0 031#02140000001B3004
(1682280124.155116) can0 0D0#02140000001B3004
(1682280124.157287) can0 02F#02140000001B3004
(1682280124.158963) can0 1E3#00000000
(1682280124.160969) can0 167#00000000
(1682280124.163098) can0 1AC#00000000
(1682280124.164972) can0 11A#00000000
(1682280124.166986) can0 168#00000000
(1682280124.168958) can0 15C#00000000
(1682280124.170965) can0 12C#00000000
(1682280124.172972) can0 140#00000000
(1682280124.174960) can0 17D#00000000
(1682280124.176266) can0 37D#80FF00280000
(1682280124.176984) can0 1C9#00000000
(1682280124.178948) can0 1A1#00000000
(1682280124.180963) can0 131#00000000
(1682280124.183104) can0 1D0#00000000
(1682280124.184957) can0 12F#00000000
(1682280124.187107) can0 2E3#00A32C2100691011
(1682280124.189227) can0 267#00A32C2100002011
(1682280124.192135) can0 2AC#00A32C2100603111
(1682280124.193086) can0 21A#00A32C2100604211
(1682280124.195347) can0 268#00A32C1E003D1011
(1682280124.197127) can0 25C#00A32C1E008F2011
(1682280124.199108) can0 22C#00A32C1E00033019
(1682280124.202138) can0 240#00A32C1E00044011
(1682280124.203084) can0 27D#00A32C1E00055019
(1682280124.205323) can0 2C9#00A32C0A00431000
(1682280124.207243) can0 2A1#00A32C0A00452000
(1682280124.209064) can0 231#00A32C0A00443100
(1682280124.212099) can0 2D0#00A32C0A00444200
(1682280124.213214) can0 22F#00A32C2700000E00
(1682280124.223643) can0 385#00
(1682280124.342281) can0 685#00
(1682280124.342760) can0 085#00140000001AE876
(1682280124.343098) can0 185#00000000
(1682280124.343562) can0 285#00A2852B00441201
(1682280124.347955) can0 301#0040
(1682280124.510737) can0 37D#80FF00290000
(1682280124.548571) can0 3AC#C0FF00000000
(1682280124.660439) can0 32C#80FF00010000
(1682280124.705626) can0 31A#C0FF00000000
(1682280124.716267) can0 00042F11#002B
(1682280124.717012) can0 00BD0111#002B0D81EE
(1682280124.824187) can0 368#80FF00010000
(1682280124.827654) can0 340#80FF00010000
(1682280124.833528) can0 367#C0FF00000000
(1682280124.844935) can0 601#00
(1682280124.845747) can0 001#00180000001B2EAD
(1682280124.846027) can0 3A1#00
(1682280124.846397) can0 101#00000000
(1682280124.846672) can0 3D0#00
(1682280124.847162) can0 201#00B8012400000100
(1682280124.852861) can0 32F#00
(1682280124.855158) can0 701#00092BBEFFFF0000
(1682280124.866246) can0 331#00
(1682280124.869012) can0 3C9#00
(1682280124.911047) can0 35C#80FF00010000
(1682280125.069415) can0 3E3#C0FF00000000
(1682280125.073568) can0 02145C11#002B
(1682280125.074294) can0 01718511#002B0D80A2
(1682280125.136887) can0 62C#00
(1682280125.137496) can0 0E3#02140000001B3004
(1682280125.137973) can0 067#02140000001B3004
(1682280125.138452) can0 0AC#02140000001B3004
(1682280125.138922) can0 01A#02140000001B3004
(1682280125.139405) can0 068#02140000001B3004
(1682280125.141121) can0 05C#02140000001B3004
(1682280125.143265) can0 02C#02140000001B3004
(1682280125.145373) can0 040#02140000001B3004
(1682280125.146365) can0 37D#80FF00280000
(1682280125.147145) can0 07D#02140000001B3004
(1682280125.149253) can0 0C9#02140000001B3004
(1682280125.151134) can0 0A1#02140000001B3004
(1682280125.153263) can0 031#02140000001B3004
(1682280125.155369) can0 0D0#02140000001B3004
(1682280125.157285) can0 02F#02140000001B3004
(1682280125.158965) can0 1E3#00000000
(1682280125.162024) can0 167#00000000
(1682280125.162970) can0 1AC#00000000
(1682280125.164983) can0 11A#00000000
(1682280125.167126) can0 168#00000000
(1682280125.169097) can0 15C#00000000
(1682280125.170976) can0 12C#00000000
(1682280125.172977) can0 140#00000000
(1682280125.174961) can0 17D#00000000
(1682280125.177000) can0 1C9#00000000
(1682280125.178966) can0 1A1#00000000
(1682280125.180962) can0 131#00000000
(1682280125.183105) can0 1D0#00000000
(1682280125.185229) can0 12F#00000000
(1682280125.187256) can0 2E3#00A32C2100691011
(1682280125.189135) can0 267#00A32C2100002011
(1682280125.192120) can0 2AC#00A32C2100603111
(1682280125.193229) can0 21A#00A32C2100604211
(1682280125.195104) can0 268#00A32C1E003D1011
(1682280125.197264) can0 25C#00A32C1E008F2011
(1682280125.199101) can0 22C#00A32C1E00033019
(1682280125.201111) can0 240#00A32C1E00044011
(1682280125.203245) can0 27D#00A32C1E00055019
(1682280125.205342) can0 2C9#00A32C0A00431000
(1682280125.207108) can0 2A1#00A32C0A00452000
(1682280125.209221) can0 231#00A32C0A00443100
(1682280125.212122) can0 2D0#00A32C0A00444200
(1682280125.213108) can0 22F#00A32C2700000E00
(1682280125.224280) can0 385#00
(1682280125.342315) can0 685#00
(1682280125.342769) can0 085#00140000001AE876
(1682280125.343096) can0 185#00000000
(1682280125.343583) can0 285#00A2852B00441201
(1682280125.348979) can0 301#0040
(1682280125.480508) can0 37D#80FF00250000
(1682280125.549253) can0 3AC#C0FF00000000
(1682280125.662488) can0 32C#80FF00010000
(1682280125.706514) can0 31A#C0FF00000000
(1682280125.814327) can0 37D#80FF00290000
(1682280125.825345) can0 368#80FF00010000
(1682280125.828230) can0 340#80FF00010000
(1682280125.834610) can0 367#C0FF00000000
(1682280125.844950) can0 601#00
(1682280125.845755) can0 001#00180000001B2EAD
(1682280125.846425) can0 101#00000000
(1682280125.847164) can0 201#00B8012400000100
(1682280125.847411) can0 3A1#00
(1682280125.847656) can0 3D0#00
(1682280125.854025) can0 32F#00
(1682280125.855188) can0 701#00092BBFFFFF0000
(1682280125.867320) can0 331#00
(1682280125.870165) can0 3C9#00
(1682280125.912637) can0 35C#80FF00010000
(1682280126.070587) can0 3E3#C0FF00000000
(1682280126.083532) can0 02145C11#002B
(1682280126.084263) can0 01718511#002B0D7F87
(1682280126.136910) can0 62C#00
(1682280126.137350) can0 0E3#02140000001B3004
(1682280126.137837) can0 067#02140000001B3004
(1682280126.138321) can0 0AC#02140000001B3004
(1682280126.138786) can0 01A#02140000001B3004
(1682280126.139271) can0 068#02140000001B3004
(1682280126.142147) can0 05C#02140000001B3004
(1682280126.143120) can0 02C#02140000001B3004
(1682280126.145381) can0 040#02140000001B3004
(1682280126.147290) can0 07D#02140000001B3004
(1682280126.149127) can0 0C9#02140000001B3004
(1682280126.151128) can0 0A1#02140000001B3004
(1682280126.153257) can0 031#02140000001B3004
(1682280126.155132) can0 0D0#02140000001B3004
(1682280126.156391) can0 37D#80FF00280000
(1682280126.157292) can0 02F#02140000001B3004
(1682280126.159112) can0 1E3#00000000
(1682280126.162014) can0 167#00000000
(1682280126.163125) can0 1AC#00000000
(1682280126.164984) can0 11A#00000000
(1682280126.166995) can0 168#00000000
(1682280126.168974) can0 15C#00000000
(1682280126.170972) can0 12C#00000000
(1682280126.172971) can0 140#00000000
(1682280126.174967) can0 17D#00000000
(1682280126.176995) can0 1C9#00000000
(1682280126.178967) can0 1A1#00000000
(1682280126.182015) can0 131#00000000
(1682280126.183109) can0 1D0#00000000
(1682280126.185219) can0 12F#00000000
(1682280126.187263) can0 2E3#00A32C2100691011
(1682280126.189110) can0 267#00A32C2100002011
(1682280126.192130) can0 2AC#00A32C2100603111
(1682280126.193235) can0 21A#00A32C2100604211
(1682280126.195117) can0 268#00A32C1E003D1011
(1682280126.197267) can0 25C#00A32C1E008F2011
(1682280126.199258) can0 22C#00A32C1E00033019
(1682280126.201125) can0 240#00A32C1E00044011
(1682280126.203243) can0 27D#00A32C1E00055019
(1682280126.205378) can0 2C9#00A32C0A00431000
(1682280126.207140) can0 2A1#00A32C0A00452000
(1682280126.209235) can0 231#00A32C0A00443100
(1682280126.212144) can0 2D0#00A32C0A00444200
(1682280126.213107) can0 22F#00A32C2700000E00
(1682280126.216315) can0 00042F11#002B
(1682280126.217042) can0 00BD0111#002B0D7BC2
(1682280126.225309) can0 385#00
(1682280126.342299) can0 685#00
(1682280126.342758) can0 085#00140000001AE876
(1682280126.343095) can0 185#00000000
(1682280126.343567) can0 285#00A2852B00441201
(1682280126.349976) can0 301#0040
(1682280126.490694) can0 37D#80FF00270000
(1682280126.550687) can0 3AC#C0FF00000000
(1682280126.663422) can0 32C#80FF00010000
(1682280126.707491) can0 31A#C0FF00000000
(1682280126.824582) can0 37D#80FF00290000
(1682280126.826234) can0 368#80FF00010000
(1682280126.829644) can0 340#80FF00010000
(1682280126.835641) can0 367#C0FF00000000
(1682280126.844976) can0 601#00
(1682280126.845784) can0 001#00180000001B2EAD
(1682280126.846434) can0 101#00000000
(1682280126.847174) can0 201#00B8012400000100
(1682280126.848133) can0 3A1#00
(1682280126.848411) can0 3D0#00
(1682280126.855206) can0 701#00092BC0FFFF0000
(1682280126.855588) can0 32F#00
(1682280126.868261) can0 331#00
(1682280126.872131) can0 3C9#00
(1682280126.913563) can0 35C#80FF00010000
(1682280127.072494) can0 3E3#C0FF00000000
(1682280127.093570) can0 02145C11#002B
(1682280127.094281) can0 01718511#002B0D8403
(1682280127.136891) can0 62C#00
(1682280127.137378) can0 01A#02140000001B3004
(1682280127.137849) can0 068#02140000001B3004
(1682280127.138331) can0 05C#02140000001B3004
(1682280127.138813) can0 02C#02140000001B3004
(1682280127.139294) can0 040#02140000001B3004
(1682280127.142476) can0 0E3#02140000001B3004
(1682280127.143270) can0 067#02140000001B3004
(1682280127.145380) can0 0AC#02140000001B3004
(1682280127.147458) can0 07D#02140000001B3004
(1682280127.149254) can0 0C9#02140000001B3004
(1682280127.151131) can0 0A1#02140000001B3004
(1682280127.153265) can0 031#02140000001B3004
(1682280127.155381) can0 0D0#02140000001B3004
(1682280127.157161) can0 02F#02140000001B3004
(1682280127.158425) can0 37D#80FF00280000
(1682280127.159108) can0 1E3#00000000
(1682280127.162026) can0 167#00000000
(1682280127.162970) can0 1AC#00000000
(1682280127.164990) can0 11A#00000000
(1682280127.167009) can0 168#00000000
(1682280127.168974) can0 15C#00000000
(1682280127.170982) can0 12C#00000000
(1682280127.172984) can0 140#00000000
(1682280127.174967) can0 17D#00000000
(1682280127.177001) can0 1C9#00000000
(1682280127.178967) can0 1A1#00000000
(1682280127.182016) can0 131#00000000
(1682280127.183125) can0 1D0#00000000
(1682280127.185230) can0 12F#00000000
(1682280127.187267) can0 2E3#00A32C2100691011
(1682280127.189111) can0 267#00A32C2100002011
(1682280127.192124) can0 2AC#00A32C2100603111
(1682280127.193243) can0 21A#00A32C2100604211
(1682280127.195112) can0 268#00A32C1E003D1011
(1682280127.197276) can0 25C#00A32C1E008F2011
(1682280127.199256) can0 22C#00A32C1E00033019
(1682280127.201116) can0 240#00A32C1E00044011
(1682280127.203248) can0 27D#00A32C1E00055019
(1682280127.205112) can0 2C9#00A32C0A00431000
(1682280127.207141) can0 2A1#00A32C0A00452000
(1682280127.209215) can0 231#00A32C0A00443100
(1682280127.211091) can0 2D0#00A32C0A00444200
(1682280127.213091) can0 22F#00A32C2700000E00
(1682280127.226305) can0 385#00
(1682280127.342318) can0 685#00
(1682280127.342779) can0 085#00140000001AE876
(1682280127.343138) can0 185#00000000
(1682280127.343592) can0 285#00A2852B00441201
(1682280127.351009) can0 301#0040
(1682280127.492382) can0 37D#80FF00270000
(1682280127.552418) can0 3AC#C0FF00000000
(1682280127.633779) can0 02140002#55
(1682280127.634071) can0 02140002#AA
(1682280127.634404) can0 02158502#5500
(1682280127.634787) can0 02158502#AA00
(1682280127.635061) can0 038D8502#5500
(1682280127.635465) can0 019D8502#5500
(1682280127.635826) can0 02B18502#5500
(1682280127.636151) can0 00698502#5500
(1682280127.636533) can0 01A18502#5500
(1682280127.636890) can0 01718502#5500
(1682280127.637225) can0 00B18502#5500
(1682280127.637598) can0 01018502#5500
(1682280127.637929) can0 01F58502#5500
(1682280127.638288) can0 03258502#5500
(1682280127.638611) can0 02858502#5500
(1682280127.638982) can0 00C58502#5500
(1682280127.639307) can0 03418502#5500
(1682280127.639680) can0 00BD8502#5500
(1682280127.640008) can0 038D8502#AA00
(1682280127.640368) can0 019D8502#AA09
(1682280127.640729) can0 02B18502#AA09
(1682280127.641075) can0 00698502#AA09
(1682280127.641411) can0 01A18502#AA09
(1682280127.641768) can0 01718502#AA09
(1682280127.642123) can0 00B18502#AA09
(1682280127.642477) can0 01018502#AA09
(1682280127.642816) can0 01F58502#AA09
(1682280127.643186) can0 03258502#AA09
(1682280127.643545) can0 02858502#AA09
(1682280127.643872) can0 00C58502#AA09
(1682280127.644232) can0 0214E342#0004
(1682280127.644566) can0 03418502#AA09
(1682280127.644934) can0 00BD8502#AA09
(1682280127.645406) can0 038D8542#000499666AAB
(1682280127.645952) can0 0214E343#0004EAE3F735
(1682280127.646420) can0 038D8543#0004
(1682280127.646835) can0 3E3#C0FF00000000
(1682280127.653590) can0 0216E301#
(1682280127.664319) can0 32C#80FF00010000
(1682280127.708471) can0 31A#C0FF00000000
(1682280127.716327) can0 00042F11#002B
(1682280127.717067) can0 00BD0111#002B0D8403
(1682280127.743623) can0 0216E301#
(1682280127.826496) can0 37D#80FF00290000
(1682280127.827433) can0 368#80FF00010000
(1682280127.830451) can0 340#80FF00010000
(1682280127.836281) can0 367#C0FF00000000
(1682280127.845006) can0 601#00
(1682280127.845605) can0 001#00180000001B2EAD
(1682280127.846321) can0 101#00000000
(1682280127.847205) can0 201#00B8012400000100
(1682280127.849319) can0 3A1#00
(1682280127.849604) can0 3D0#00
(1682280127.853621) can0 0216E301#
(1682280127.855260) can0 701#00092BC1FFFF0000
(1682280127.856323) can0 32F#00
(1682280127.869099) can0 331#00
(1682280127.873371) can0 3E3#C2FF00060000
(1682280127.873655) can0 3C9#00
(1682280127.914211) can0 35C#80FF00010000
(1682280127.963595) can0 0216E301#
(1682280128.073643) can0 0216E301#
(1682280128.093331) can0 3E3#C2FF009D0000
(1682280128.103535) can0 02145C11#002B
(1682280128.104247) can0 01718511#002B0D7459
(1682280128.137084) can0 62C#00
(1682280128.137567) can0 0E3#06140000001B3004
(1682280128.138043) can0 067#02140000001B3004
(1682280128.138512) can0 0AC#02140000001B3004
(1682280128.138986) can0 01A#02140000001B3004
(1682280128.139471) can0 068#02140000001B3004
(1682280128.142242) can0 05C#02140000001B3004
(1682280128.143126) can0 02C#02140000001B3004
(1682280128.144439) can0 3E3#C2FF05980000
(1682280128.145439) can0 040#02140000001B3004
(1682280128.147159) can0 07D#02140000001B3004
(1682280128.149330) can0 0C9#02140000001B3004
(1682280128.151131) can0 0A1#02140000001B3004
(1682280128.153324) can0 031#02140000001B3004
(1682280128.153656) can0 0214E344#0004
(1682280128.155379) can0 0D0#02140000001B3004
(1682280128.157156) can0 02F#02140000001B3004
(1682280128.159117) can0 1E3#00000000
(1682280128.160613) can0 37D#80FF00250000
(1682280128.162131) can0 167#00000000
(1682280128.163117) can0 1AC#00000000
(1682280128.165001) can0 11A#00000000
(1682280128.167131) can0 168#00000000
(1682280128.169164) can0 15C#00000000
(1682280128.172041) can0 12C#00000000
(1682280128.172978) can0 140#00000000
(1682280128.174975) can0 17D#00000000
(1682280128.177003) can0 1C9#00000000
(1682280128.179126) can0 1A1#00000000
(1682280128.182084) can0 131#00000000
(1682280128.182969) can0 1D0#00000000
(1682280128.183649) can0 0216E301#
(1682280128.184975) can0 12F#00000000
(1682280128.187133) can0 2E3#00A32C2100691011
(1682280128.189310) can0 267#00A32C2100002011
(1682280128.192145) can0 2AC#00A32C2100603111
(1682280128.193113) can0 21A#00A32C2100604211
(1682280128.195372) can0 268#00A32C1E003D1011
(1682280128.195768) can0 3E3#C2FF05000000
(1682280128.197344) can0 25C#00A32C1E008F2011
(1682280128.199113) can0 22C#00A32C1E00033019
(1682280128.201125) can0 240#00A32C1E00044011
(1682280128.203263) can0 27D#00A32C1E00055019
(1682280128.205119) can0 2C9#00A32C0A00431000
(1682280128.207136) can0 2A1#00A32C0A00452000
(1682280128.209297) can0 231#00A32C0A00443100
(1682280128.212122) can0 2D0#00A32C0A00444200
(1682280128.213086) can0 22F#00A32C2700000E00
(1682280128.227325) can0 385#00
(1682280128.246139) can0 3E3#C2FF04070000
(1682280128.293601) can0 0216E301#
(1682280128.297323) can0 3E3#C2FF03760000
(1682280128.342315) can0 685#00
(1682280128.342773) can0 085#00140000001AE876
(1682280128.343103) can0 185#00000000
(1682280128.343570) can0 285#00A2852B00441201
(1682280128.348537) can0 3E3#C2FF033F0000
(1682280128.352032) can0 301#0040
(1682280128.399253) can0 3E3#C2FF03290000
(1682280128.403613) can0 0216E301#
(1682280128.450565) can0 3E3#C2FF03180000
(1682280128.494642) can0 37D#80FF00240000
(1682280128.502327) can0 3E3#C2FF03270000
(1682280128.513654) can0 0216E301#
(1682280128.553582) can0 3E3#C2FF03430000
(1682280128.553991) can0 3AC#C0FF00000000
(1682280128.604333) can0 3E3#C2FF03410000
(1682280128.623619) can0 0216E301#
(1682280128.655692) can0 3E3#C2FF03280000
(1682280128.663684) can0 0214E344#0004
(1682280128.665660) can0 32C#80FF00010000
(1682280128.706460) can0 3E3#C2FF03200000
(1682280128.709476) can0 31A#C0FF00000000
(1682280128.733647) can0 0216E301#
(1682280128.757321) can0 3E3#C2FF03220000
(1682280128.808501) can0 3E3#C2FF031D0000
(1682280128.828437) can0 368#80FF00010000
(1682280128.832558) can0 340#80FF00010000
(1682280128.837485) can0 367#C0FF00000000
(1682280128.843644) can0 0216E301#
(1682280128.845013) can0 601#00
(1682280128.845831) can0 001#00180000001B2EAD
(1682280128.846476) can0 101#00000000
(1682280128.847222) can0 201#00B8012400000100
(1682280128.850360) can0 3A1#00
(1682280128.850675) can0 3D0#00
(1682280128.855241) can0 701#00092BC2FFFF0000
(1682280128.857339) can0 32F#00
(1682280128.859280) can0 3E3#C2FF03280000
(1682280128.870409) can0 331#00
(1682280128.874224) can0 3C9#00
(1682280128.910724) can0 3E3#C2FF031A0000
(1682280128.915511) can0 35C#80FF00010000
(1682280128.953615) can0 0216E301#
(1682280128.962609) can0 3E3#C2FF03200000
(1682280129.013324) can0 3E3#C2FF031D0000
(1682280129.063621) can0 0216E301#
(1682280129.064519) can0 3E3#C2FF03200000
(1682280129.082459) can0 37D#80FF00250000
(1682280129.113539) can0 02145C11#002B
(1682280129.114259) can0 01718511#002B0D4EA0
(1682280129.115741) can0 3E3#C2FF03280000
(1682280129.137077) can0 62C#00
(1682280129.137559) can0 067#02140000001B3004
(1682280129.138045) can0 0AC#02140000001B3004
(1682280129.138511) can0 01A#02140000001B3004
(1682280129.138994) can0 068#02140000001B3004
(1682280129.139476) can0 05C#02140000001B3004
(1682280129.142232) can0 02C#02140000001B3004
(1682280129.143267) can0 040#02140000001B3004
(1682280129.145633) can0 0E3#06140000001B3004
(1682280129.147532) can0 07D#02140000001B3004
(1682280129.149111) can0 0C9#02140000001B3004
(1682280129.151131) can0 0A1#02140000001B3004
(1682280129.153324) can0 031#02140000001B3004
(1682280129.155125) can0 0D0#02140000001B3004
(1682280129.157370) can0 02F#02140000001B3004
(1682280129.159113) can0 1E3#00000000
(1682280129.160975) can0 167#00000000
(1682280129.162972) can0 1AC#00000000
(1682280129.164989) can0 11A#00000000
(1682280129.166262) can0 3E3#C2FF03320000
(1682280129.167140) can0 168#00000000
(1682280129.169176) can0 15C#00000000
(1682280129.170987) can0 12C#00000000
(1682280129.172978) can0 140#00000000
(1682280129.173622) can0 0216E301#
(1682280129.175217) can0 17D#00000000
(1682280129.177005) can0 1C9#00000000
(1682280129.178967) can0 1A1#00000000
(1682280129.182105) can0 131#00000000
(1682280129.182978) can0 1D0#00000000
(1682280129.183642) can0 0214E344#0004
(1682280129.185279) can0 12F#00000000
(1682280129.187256) can0 2E3#00A32C2100691011
(1682280129.189319) can0 267#00A32C2100002011
(1682280129.192141) can0 2AC#00A32C2100603111
(1682280129.193114) can0 21A#00A32C2100604211
(1682280129.195377) can0 268#00A32C1E003D1011
(1682280129.197165) can0 25C#00A32C1E008F2011
(1682280129.199121) can0 22C#00A32C1E00033019
(1682280129.201123) can0 240#00A32C1E00044011
(1682280129.203121) can0 27D#00A32C1E00055019
(1682280129.205439) can0 2C9#00A32C0A00431000
(1682280129.207290) can0 2A1#00A32C0A00452000
(1682280129.209100) can0 231#00A32C0A00443100
(1682280129.211124) can0 2D0#00A32C0A00444200
(1682280129.213086) can0 22F#00A32C2700000E00
(1682280129.216348) can0 00042F11#002B
(1682280129.217082) can0 00BD0111#002B0D467F
(1682280129.217773) can0 3E3#C2FF033E0000
(1682280129.228302) can0 385#00
(1682280129.268443) can0 3E3#C2FF034C0000
(1682280129.283620) can0 0216E301#
(1682280129.319184) can0 3E3#C2FF03600000
(1682280129.342328) can0 685#00
(1682280129.342812) can0 085#00140000001AE876
(1682280129.343098) can0 185#00000000
(1682280129.343608) can0 285#00A2852B00441201
(1682280129.353054) can0 301#0040
(1682280129.370603) can0 3E3#C2FF03890000
(1682280129.393633) can0 0216E301#
(1682280129.416449) can0 37D#80FF00230000
(1682280129.422417) can0 3E3#C2FF03870000
(1682280129.473608) can0 3E3#C2FF036E0000
(1682280129.503637) can0 0216E301#
(1682280129.524325) can0 3E3#C2FF03630000
(1682280129.554302) can0 3AC#C0FF00000000
(1682280129.575645) can0 3E3#C2FF03560000
(1682280129.613643) can0 0216E301#
(1682280129.626313) can0 3E3#C2FF03510000
(1682280129.666486) can0 32C#80FF00010000
(1682280129.677548) can0 3E3#C2FF034F0000
(1682280129.693638) can0 0214E344#0004
(1682280129.710448) can0 31A#C0FF00000000
(1682280129.723620) can0 0216E301#
(1682280129.728288) can0 3E3#C2FF03500000
(1682280129.750666) can0 37D#80FF00250000
(1682280129.779519) can0 3E3#C2FF03590000
(1682280129.829331) can0 368#80FF00010000
(1682280129.830440) can0 3E3#C2FF03500000
(1682280129.833510) can0 340#80FF00010000
(1682280129.833776) can0 0216E301#
(1682280129.838435) can0 367#C0FF00000000
(1682280129.845039) can0 601#00
(1682280129.845843) can0 001#00180000001B2EAD
(1682280129.846492) can0 101#00000000
(1682280129.847238) can0 201#00B8012400000100
(1682280129.852290) can0 3A1#00
(1682280129.852551) can0 3D0#00
(1682280129.855259) can0 701#00092BC3FFFF0000
(1682280129.858230) can0 32F#00
(1682280129.872261) can0 331#00
(1682280129.875169) can0 3C9#00
(1682280129.882178) can0 3E3#C2FF03520000
(1682280129.916239) can0 35C#80FF00010000
(1682280129.933514) can0 3E3#C2FF03500000
(1682280129.943629) can0 0216E301#
(1682280129.984252) can0 3E3#C2FF034D0000
(1682280130.035572) can0 3E3#C2FF03520000
(1682280130.053642) can0 0216E301#
(1682280130.086280) can0 3E3#C2FF03590000
(1682280130.123569) can0 02145C11#002B
(1682280130.124316) can0 01718511#002B0D4C00
(1682280130.136882) can0 62C#00
(1682280130.137479) can0 0E3#06140000001B3004
(1682280130.137873) can0 3E3#C2FF03610000
(1682280130.138349) can0 067#02140000001B3004
(1682280130.138832) can0 0AC#02140000001B3004
(1682280130.139318) can0 01A#02140000001B3004
(1682280130.139787) can0 068#02140000001B3004
(1682280130.141155) can0 05C#02140000001B3004
(1682280130.143254) can0 02C#02140000001B3004
(1682280130.145129) can0 040#02140000001B3004
(1682280130.146267) can0 37D#80FF00260000
(1682280130.147292) can0 07D#02140000001B3004
(1682280130.149122) can0 0C9#02140000001B3004
(1682280130.152177) can0 0A1#02140000001B3004
(1682280130.153326) can0 031#02140000001B3004
(1682280130.155365) can0 0D0#02140000001B3004
(1682280130.157158) can0 02F#02140000001B3004
(1682280130.159109) can0 1E3#00000000
(1682280130.162106) can0 167#00000000
(1682280130.163105) can0 1AC#00000000
(1682280130.163646) can0 0216E300#
(1682280130.164994) can0 11A#00000000
(1682280130.166993) can0 168#00000000
(1682280130.168968) can0 15C#00000000
(1682280130.172024) can0 12C#00000000
(1682280130.172977) can0 140#00000000
(1682280130.175233) can0 17D#00000000
(1682280130.177204) can0 1C9#00000000
(1682280130.179107) can0 1A1#00000000
(1682280130.180979) can0 131#00000000
(1682280130.182973) can0 1D0#00000000
(1682280130.184960) can0 12F#00000000
(1682280130.187121) can0 2E3#00A32C2100691011
(1682280130.188370) can0 3E3#C0FF03570000
(1682280130.189111) can0 267#00A32C2100002011
(1682280130.191111) can0 2AC#00A32C2100603111
(1682280130.193292) can0 21A#00A32C2100604211
(1682280130.195372) can0 268#00A32C1E003D1011
(1682280130.197161) can0 25C#00A32C1E008F2011
(1682280130.199247) can0 22C#00A32C1E00033019
(1682280130.202217) can0 240#00A32C1E00044011
(1682280130.203118) can0 27D#00A32C1E00055019
(1682280130.203660) can0 0214E344#0004
(1682280130.205439) can0 2C9#00A32C0A00431000
(1682280130.207134) can0 2A1#00A32C0A00452000
(1682280130.209292) can0 231#00A32C0A00443100
(1682280130.212149) can0 2D0#00A32C0A00444200
(1682280130.213305) can0 22F#00A32C2700000E00
(1682280130.229307) can0 385#00
(1682280130.239489) can0 3E3#C0FF01A10000
(1682280130.290691) can0 3E3#C0FF00B50000
(1682280130.342422) can0 3E3#C0FF004F0000
(1682280130.342684) can0 685#00
(1682280130.343076) can0 085#00140000001AE876
(1682280130.343397) can0 185#00000000
(1682280130.343873) can0 285#00A2852B00441201
(1682280130.354083) can0 301#0040
(1682280130.393652) can0 3E3#C0FF00240000
(1682280130.444266) can0 3E3#C0FF00120000
(1682280130.480643) can0 37D#80FF00280000
(1682280130.495577) can0 3E3#C0FF000A0000
(1682280130.546229) can0 3E3#C0FF00060000
(1682280130.555413) can0 3AC#C0FF00000000
(1682280130.667519) can0 32C#80FF00010000
(1682280130.712415) can0 31A#C0FF00000000
(1682280130.713688) can0 0214E345#0004
(1682280130.714193) can0 038D8545#000400
(1682280130.716410) can0 00042F11#002B
(1682280130.717144) can0 00BD0111#002B0D7BB9
(1682280130.814403) can0 37D#80FF00290000
(1682280130.830702) can0 368#80FF00010000
(1682280130.834229) can0 340#80FF00010000
(1682280130.839589) can0 367#C0FF00000000
(1682280130.845062) can0 601#00
(1682280130.845868) can0 001#00180000001B2EAD
(1682280130.846571) can0 101#00000000
(1682280130.847263) can0 201#00B8012400000100
(1682280130.853121) can0 3D0#00
(1682280130.853576) can0 3A1#00
(1682280130.855306) can0 701#00092BC4FFFF0000
(1682280130.859416) can0 32F#00
(1682280130.873509) can0 331#00
(1682280130.876325) can0 3C9#00
(1682280130.917569) can0 35C#80FF00010000
(1682280130.933619) can0 3E3#C0FF00000000
(1682280131.133567) can0 02145C11#002B
(1682280131.134287) can0 01718511#002B0D81F7
(1682280131.137023) can0 62C#00
(1682280131.137496) can0 0AC#02140000001B3004
(1682280131.137976) can0 01A#02140000001B3004
(1682280131.138457) can0 068#02140000001B3004
(1682280131.138943) can0 05C#02140000001B3004
(1682280131.139428) can0 02C#02140000001B3004
(1682280131.141131) can0 040#02140000001B3004
(1682280131.143476) can0 0E3#02140000001B3004
(1682280131.145130) can0 067#02140000001B3004
(1682280131.147513) can0 07D#02140000001B3004
(1682280131.148583) can0 37D#80FF00280000
(1682280131.149260) can0 0C9#02140000001B3004
(1682280131.152161) can0 0A1#02140000001B3004
(1682280131.153120) can0 031#02140000001B3004
(1682280131.155384) can0 0D0#02140000001B3004
(1682280131.157291) can0 02F#02140000001B3004
(1682280131.158976) can0 1E3#00000000
(1682280131.160994) can0 167#00000000
(1682280131.163111) can0 1AC#00000000
(1682280131.165249) can0 11A#00000000
(1682280131.167143) can0 168#00000000
(1682280131.169115) can0 15C#00000000
(1682280131.172006) can0 12C#00000000
(1682280131.173139) can0 140#00000000
(1682280131.175228) can0 17D#00000000
(1682280131.177139) can0 1C9#00000000
(1682280131.179108) can0 1A1#00000000
(1682280131.180987) can0 131#00000000
(1682280131.182984) can0 1D0#00000000
(1682280131.184968) can0 12F#00000000
(1682280131.187128) can0 2E3#00A32C2100691011
(1682280131.189242) can0 267#00A32C2100002011
(1682280131.192135) can0 2AC#00A32C2100603111
(1682280131.193091) can0 21A#00A32C2100604211
(1682280131.195361) can0 268#00A32C1E003D1011
(1682280131.197136) can0 25C#00A32C1E008F2011
(1682280131.199244) can0 22C#00A32C1E00033019
(1682280131.202146) can0 240#00A32C1E00044011
(1682280131.203253) can0 27D#00A32C1E00055019
(1682280131.205131) can0 2C9#00A32C0A00431000
(1682280131.207280) can0 2A1#00A32C0A00452000
(1682280131.209113) can0 231#00A32C0A00443100
(1682280131.211113) can0 2D0#00A32C0A00444200
(1682280131.213242) can0 22F#00A32C2700000E00
(1682280131.230337) can0 385#00
(1682280131.342313) can0 685#00
(1682280131.342781) can0 085#00140000001AE876
(1682280131.343126) can0 185#00000000
(1682280131.343590) can0 285#00A2852B00441201
(1682280131.355106) can0 301#0040
(1682280131.482271) can0 37D#80FF00260000
(1682280131.556567) can0 3AC#C0FF00000000
(1682280131.668311) can0 32C#80FF00010000
(1682280131.713437) can0 31A#C0FF00000000
(1682280131.816282) can0 37D#80FF00280000
(1682280131.823678) can0 0214E342#0004
(1682280131.824291) can0 038D8542#00043590A714
(1682280131.824853) can0 0214E343#00042596D1F3
(1682280131.825304) can0 038D8543#0004
(1682280131.825720) can0 3E3#C0FF00000000
(1682280131.832512) can0 368#80FF00010000
(1682280131.833588) can0 0216E302#
(1682280131.835584) can0 340#80FF00010000
(1682280131.840405) can0 367#C0FF00000000
(1682280131.845136) can0 601#00
(1682280131.845910) can0 001#00180000001B2EAD
(1682280131.846567) can0 101#00000000
(1682280131.847286) can0 201#00B8012400000100
(1682280131.854051) can0 3D0#00
(1682280131.854511) can0 3A1#00
(1682280131.855343) can0 701#00092BC5FFFF0000
(1682280131.860417) can0 32F#00
(1682280131.874158) can0 331#00
(1682280131.877460) can0 3C9#00
(1682280131.918499) can0 35C#80FF00010000
(1682280131.923610) can0 0216E302#
(1682280132.033669) can0 0216E302#
(1682280132.053477) can0 3E3#C3FF00060000
(1682280132.137088) can0 62C#00
(1682280132.137565) can0 067#02140000001B3004
(1682280132.138039) can0 0AC#02140000001B3004
(1682280132.138551) can0 01A#02140000001B3004
(1682280132.138999) can0 068#02140000001B3004
(1682280132.139480) can0 05C#02140000001B3004
(1682280132.141121) can0 02C#02140000001B3004
(1682280132.143271) can0 040#02140000001B3004
(1682280132.143600) can0 02145C11#002B
(1682280132.143879) can0 0216E302#
(1682280132.144478) can0 01718511#002B0D7F0B
(1682280132.145622) can0 0E3#06140000001B3004
(1682280132.147532) can0 07D#02140000001B3004
(1682280132.149114) can0 0C9#02140000001B3004
(1682280132.150510) can0 37D#80FF00290000
(1682280132.151135) can0 0A1#02140000001B3004
(1682280132.153116) can0 031#02140000001B3004
(1682280132.155390) can0 0D0#02140000001B3004
(1682280132.157354) can0 02F#02140000001B3004
(1682280132.159106) can0 1E3#00000000
(1682280132.160982) can0 167#00000000
(1682280132.163119) can0 1AC#00000000
(1682280132.164979) can0 11A#00000000
(1682280132.167008) can0 168#00000000
(1682280132.168991) can0 15C#00000000
(1682280132.170979) can0 12C#00000000
(1682280132.172981) can0 140#00000000
(1682280132.174983) can0 17D#00000000
(1682280132.177005) can0 1C9#00000000
(1682280132.178983) can0 1A1#00000000
(1682280132.180980) can0 131#00000000
(1682280132.182971) can0 1D0#00000000
(1682280132.184983) can0 12F#00000000
(1682280132.187134) can0 2E3#00A32C2100691011
(1682280132.189311) can0 267#00A32C2100002011
(1682280132.191096) can0 2AC#00A32C2100603111
(1682280132.193290) can0 21A#00A32C2100604211
(1682280132.195106) can0 268#00A32C1E003D1011
(1682280132.197343) can0 25C#00A32C1E008F2011
(1682280132.199263) can0 22C#00A32C1E00033019
(1682280132.201119) can0 240#00A32C1E00044011
(1682280132.203258) can0 27D#00A32C1E00055019
(1682280132.205119) can0 2C9#00A32C0A00431000
(1682280132.207272) can0 2A1#00A32C0A00452000
(1682280132.209106) can0 231#00A32C0A00443100
(1682280132.211119) can0 2D0#00A32C0A00444200
(1682280132.213300) can0 22F#00A32C2700000E00
(1682280132.216466) can0 00042F11#002B
(1682280132.217205) can0 00BD0111#002B0D755D
(1682280132.231320) can0 385#00
(1682280132.253603) can0 0216E302#
(1682280132.273645) can0 3E3#C3FF00960000
(1682280132.324323) can0 3E3#C3FF05E50000
(1682280132.333667) can0 0214E344#0004
(1682280132.342316) can0 685#00
(1682280132.342789) can0 085#00140000001AE876
(1682280132.343120) can0 185#00000000
(1682280132.343597) can0 285#00A2852B00441201
(1682280132.356112) can0 301#0040
(1682280132.363644) can0 0216E302#
(1682280132.375357) can0 3E3#C3FF064D0000
(1682280132.426419) can0 3E3#C3FF058D0000
(1682280132.473652) can0 0216E302#
(1682280132.477623) can0 3E3#C3FF04E70000
(1682280132.484058) can0 37D#80FF00230000
(1682280132.528368) can0 3E3#C3FF049B0000
(1682280132.557091) can0 3AC#C0FF00000000
(1682280132.579608) can0 3E3#C3FF04700000
(1682280132.583642) can0 0216E302#
(1682280132.633269) can0 3E3#C3FF04730000
(1682280132.669526) can0 32C#80FF00010000
(1682280132.684471) can0 3E3#C3FF04660000
(1682280132.693649) can0 0216E302#
(1682280132.714577) can0 31A#C0FF00000000
(1682280132.735414) can0 3E3#C3FF045B0000
(1682280132.786621) can0 3E3#C3FF044D0000
(1682280132.803643) can0 0216E302#
(1682280132.818484) can0 37D#80FF00240000
(1682280132.833569) can0 368#80FF00010000
(1682280132.836530) can0 340#80FF00010000
(1682280132.837492) can0 3E3#C3FF044A0000
(1682280132.842623) can0 367#C0FF00000000
(1682280132.843694) can0 0214E344#0004
(1682280132.845096) can0 601#00
(1682280132.845938) can0 001#00180000001B2EAD
(1682280132.846621) can0 101#00000000
(1682280132.847310) can0 201#00B8012400000100
(1682280132.855339) can0 701#00092BC6FFFF0000
(1682280132.855584) can0 3A1#00
(1682280132.855827) can0 3D0#00
(1682280132.862496) can0 32F#00
(1682280132.875465) can0 331#00
(1682280132.878226) can0 3C9#00
(1682280132.888219) can0 3E3#C3FF04590000
(1682280132.913658) can0 0216E302#
(1682280132.919438) can0 35C#80FF00010000
(1682280132.939504) can0 3E3#C3FF04850000
(1682280132.990362) can0 3E3#C3FF048E0000
(1682280133.023648) can0 0216E302#
(1682280133.042658) can0 3E3#C3FF04B40000
(1682280133.093417) can0 3E3#C3FF04B80000
(1682280133.133649) can0 0216E302#
(1682280133.137072) can0 62C#00
(1682280133.137539) can0 0E3#06140000001B3004
(1682280133.138020) can0 067#02140000001B3004
(1682280133.138497) can0 0AC#02140000001B3004
(1682280133.138997) can0 01A#02140000001B3004
(1682280133.139466) can0 068#02140000001B3004
(1682280133.142234) can0 05C#02140000001B3004
(1682280133.143258) can0 02C#02140000001B3004
(1682280133.144244) can0 3E3#C3FF04F00000
(1682280133.145137) can0 040#02140000001B3004
(1682280133.147292) can0 07D#02140000001B3004
(1682280133.149330) can0 0C9#02140000001B3004
(1682280133.152170) can0 0A1#02140000001B3004
(1682280133.152690) can0 37D#80FF00250000
(1682280133.153166) can0 031#02140000001B3004
(1682280133.153571) can0 02145C11#002B
(1682280133.154298) can0 01718511#002B0D35C6
(1682280133.155393) can0 0D0#02140000001B3004
(1682280133.157347) can0 02F#02140000001B3004
(1682280133.158988) can0 1E3#00000000
(1682280133.162112) can0 167#00000000
(1682280133.163117) can0 1AC#00000000
(1682280133.164979) can0 11A#00000000
(1682280133.166996) can0 168#00000000
(1682280133.169186) can0 15C#00000000
(1682280133.172030) can0 12C#00000000
(1682280133.172981) can0 140#00000000
(1682280133.174974) can0 17D#00000000
(1682280133.177015) can0 1C9#00000000
(1682280133.178971) can0 1A1#00000000
(1682280133.180981) can0 131#00000000
(1682280133.183106) can0 1D0#00000000
(1682280133.185277) can0 12F#00000000
(1682280133.187260) can0 2E3#00A32C2100691011
(1682280133.189319) can0 267#00A32C2100002011
(1682280133.191106) can0 2AC#00A32C2100603111
(1682280133.193297) can0 21A#00A32C2100604211
(1682280133.195122) can0 268#00A32C1E003D1011
(1682280133.195519) can0 3E3#C3FF04EA0000
(1682280133.197331) can0 25C#00A32C1E008F2011
(1682280133.199254) can0 22C#00A32C1E00033019
(1682280133.202237) can0 240#00A32C1E00044011
(1682280133.203256) can0 27D#00A32C1E00055019
(1682280133.205114) can0 2C9#00A32C0A00431000
(1682280133.207269) can0 2A1#00A32C0A00452000
(1682280133.209316) can0 231#00A32C0A00443100
(1682280133.212170) can0 2D0#00A32C0A00444200
(1682280133.213319) can0 22F#00A32C2700000E00
(1682280133.232336) can0 385#00
(1682280133.243620) can0 0216E302#
(1682280133.246324) can0 3E3#C3FF05090000
(1682280133.297571) can0 3E3#C3FF04FE0000
(1682280133.342327) can0 685#00
(1682280133.342800) can0 085#00140000001AE876
(1682280133.343085) can0 185#00000000
(1682280133.343597) can0 285#00A2852B00441201
(1682280133.348359) can0 3E3#C3FF05140000
(1682280133.353628) can0 0216E302#
(1682280133.357166) can0 301#0040
(1682280133.363659) can0 0214E344#0004
(1682280133.399239) can0 3E3#C3FF05100000
(1682280133.450555) can0 3E3#C3FF05390000
(1682280133.463661) can0 0216E302#
(1682280133.486305) can0 37D#80FF00230000
(1682280133.502333) can0 3E3#C3FF05270000
(1682280133.553544) can0 3E3#C3FF05490000
(1682280133.558247) can0 3AC#C0FF00000000
(1682280133.573668) can0 0216E302#
(1682280133.604319) can0 3E3#C3FF052C0000
(1682280133.655636) can0 3E3#C3FF05510000
(1682280133.670627) can0 32C#80FF00010000
(1682280133.683667) can0 0216E302#
(1682280133.706417) can0 3E3#C3FF054C0000
(1682280133.715641) can0 31A#C0FF00000000
(1682280133.716476) can0 00042F11#002B
(1682280133.717219) can0 00BD0111#002B0D2E14
(1682280133.757534) can0 3E3#C3FF05790000
(1682280133.793648) can0 0216E302#
(1682280133.808269) can0 3E3#C3FF05940000
(1682280133.834356) can0 368#80FF00010000
(1682280133.837413) can0 340#80FF00010000
(1682280133.843370) can0 367#C0FF00000000
(1682280133.845122) can0 601#00
(1682280133.845937) can0 001#00180000001B2EAD
(1682280133.846593) can0 101#00000000
(1682280133.847330) can0 201#00B8012400000100
(1682280133.855362) can0 701#00092BC7FFFF0000
(1682280133.856149) can0 3A1#00
(1682280133.856433) can0 3D0#00
(1682280133.859399) can0 3E3#C3FF05D70000
(1682280133.863219) can0 32F#00
(1682280133.873674) can0 0214E344#0004
(1682280133.876194) can0 331#00
(1682280133.879008) can0 3C9#00
(1682280133.903656) can0 0216E302#
(1682280133.910495) can0 3E3#C3FF06070000
(1682280133.920327) can0 35C#80FF00010000
(1682280133.962310) can0 3E3#C3FF06270000
(1682280134.013506) can0 3E3#C3FF062F0000
(1682280134.013753) can0 0216E302#
(1682280134.064254) can0 3E3#C3FF063A0000
(1682280134.115575) can0 3E3#C3FF06290000
(1682280134.122643) can0 37D#80FF00240000
(1682280134.123633) can0 0216E302#
(1682280134.136886) can0 62C#00
(1682280134.137406) can0 02C#02140000001B3004
(1682280134.137890) can0 040#02140000001B3004
(1682280134.138417) can0 0E3#06140000001B3004
(1682280134.138842) can0 067#02140000001B3004
(1682280134.139325) can0 0AC#02140000001B3004
(1682280134.142249) can0 01A#02140000001B3004
(1682280134.143139) can0 068#02140000001B3004
(1682280134.145445) can0 05C#02140000001B3004
(1682280134.147358) can0 07D#02140000001B3004
(1682280134.149134) can0 0C9#02140000001B3004
(1682280134.152185) can0 0A1#02140000001B3004
(1682280134.153329) can0 031#02140000001B3004
(1682280134.155390) can0 0D0#02140000001B3004
(1682280134.157168) can0 02F#02140000001B3004
(1682280134.159108) can0 1E3#00000000
(1682280134.162093) can0 167#00000000
(1682280134.163111) can0 1AC#00000000
(1682280134.163574) can0 02145C11#002B
(1682280134.164319) can0 01718511#002B0D23E2
(1682280134.165311) can0 11A#00000000
(1682280134.166500) can0 3E3#C3FF061F0000
(1682280134.167005) can0 168#00000000
(1682280134.168989) can0 15C#00000000
(1682280134.172034) can0 12C#00000000
(1682280134.172976) can0 140#00000000
(1682280134.175238) can0 17D#00000000
(1682280134.177212) can0 1C9#00000000
(1682280134.179127) can0 1A1#00000000
(1682280134.180999) can0 131#00000000
(1682280134.183118) can0 1D0#00000000
(1682280134.185298) can0 12F#00000000
(1682280134.187268) can0 2E3#00A32C2100691011
(1682280134.189320) can0 267#00A32C2100002011
(1682280134.191105) can0 2AC#00A32C2100603111
(1682280134.193094) can0 21A#00A32C2100604211
(1682280134.195132) can0 268#00A32C1E003D1011
(1682280134.197334) can0 25C#00A32C1E008F2011
(1682280134.199260) can0 22C#00A32C1E00033019
(1682280134.201127) can0 240#00A32C1E00044011
(1682280134.203259) can0 27D#00A32C1E00055019
(1682280134.205125) can0 2C9#00A32C0A00431000
(1682280134.207287) can0 2A1#00A32C0A00452000
(1682280134.209319) can0 231#00A32C0A00443100
(1682280134.212166) can0 2D0#00A32C0A00444200
(1682280134.213320) can0 22F#00A32C2700000E00
(1682280134.217655) can0 3E3#C3FF062C0000
(1682280134.233623) can0 0216E302#
(1682280134.233870) can0 385#00
(1682280134.268388) can0 3E3#C3FF061B0000
(1682280134.319517) can0 3E3#C3FF06370000
(1682280134.342324) can0 685#00
(1682280134.342791) can0 085#00140000001AE876
(1682280134.343129) can0 185#00000000
(1682280134.343606) can0 285#00A2852B00441201
(1682280134.343889) can0 0216E302#
(1682280134.358165) can0 301#0040
(1682280134.370577) can0 3E3#C3FF06060000
(1682280134.383661) can0 0214E344#0004
(1682280134.422160) can0 3E3#C3FF06710000
(1682280134.453660) can0 0216E302#
(1682280134.456380) can0 37D#80FF00230000
(1682280134.473571) can0 3E3#C3FF06850000
(1682280134.524211) can0 3E3#C3FF06C20000
(1682280134.559246) can0 3AC#C0FF00000000
(1682280134.563652) can0 0216E300#
(1682280134.575626) can0 3E3#C0FF07770000
(1682280134.626190) can0 3E3#C0FF04590000
(1682280134.672419) can0 32C#80FF00010000
(1682280134.677359) can0 3E3#C0FF01E60000
(1682280134.716201) can0 31A#C0FF00000000
(1682280134.728409) can0 3E3#C0FF00E10000
(1682280134.779489) can0 3E3#C0FF00630000
(1682280134.790640) can0 37D#80FF00250000
(1682280134.830319) can0 3E3#C0FF002C0000
(1682280134.835517) can0 368#80FF00010000
(1682280134.838452) can0 340#80FF00010000
(1682280134.844393) can0 367#C0FF00000000
(1682280134.845141) can0 601#00
(1682280134.845755) can0 001#00180000001B2EAD
(1682280134.846443) can0 101#00000000
(1682280134.847161) can0 201#00B8012400000100
(1682280134.855383) can0 701#00092BC8FFFF0000
(1682280134.857262) can0 3A1#00
(1682280134.857541) can0 3D0#00
(1682280134.864179) can0 32F#00
(1682280134.877173) can0 331#00
(1682280134.880490) can0 3C9#00
(1682280134.882578) can0 3E3#C0FF00150000
(1682280134.893731) can0 0214E344#0004
(1682280134.922721) can0 35C#80FF00010000
(1682280134.933326) can0 3E3#C0FF000B0000
(1682280134.984410) can0 3E3#C0FF00060000
(1682280135.124362) can0 37D#80FF00290000
(1682280135.136900) can0 62C#00
(1682280135.137563) can0 0E3#06140000001B3004
(1682280135.138045) can0 067#02140000001B3004
(1682280135.138563) can0 0AC#02140000001B3004
(1682280135.138993) can0 01A#02140000001B3004
(1682280135.139478) can0 068#02140000001B3004
(1682280135.141157) can0 05C#02140000001B3004
(1682280135.143293) can0 02C#02140000001B3004
(1682280135.145451) can0 040#02140000001B3004
(1682280135.147172) can0 07D#02140000001B3004
(1682280135.149127) can0 0C9#02140000001B3004
(1682280135.152186) can0 0A1#02140000001B3004
(1682280135.153332) can0 031#02140000001B3004
(1682280135.155386) can0 0D0#02140000001B3004
(1682280135.157366) can0 02F#02140000001B3004
(1682280135.158980) can0 1E3#00000000
(1682280135.160980) can0 167#00000000
(1682280135.162979) can0 1AC#00000000
(1682280135.165006) can0 11A#00000000
(1682280135.167006) can0 168#00000000
(1682280135.168991) can0 15C#00000000
(1682280135.170988) can0 12C#00000000
(1682280135.173186) can0 140#00000000
(1682280135.173579) can0 02145C11#002B
(1682280135.174291) can0 01718511#002B0D6F4C
(1682280135.175245) can0 17D#00000000
(1682280135.177005) can0 1C9#00000000
(1682280135.178985) can0 1A1#00000000
(1682280135.180990) can0 131#00000000
(1682280135.183103) can0 1D0#00000000
(1682280135.185286) can0 12F#00000000
(1682280135.187272) can0 2E3#00A32C2100691011
(1682280135.189326) can0 267#00A32C2100002011
(1682280135.191114) can0 2AC#00A32C2100603111
(1682280135.193317) can0 21A#00A32C2100604211
(1682280135.195130) can0 268#00A32C1E003D1011
(1682280135.197337) can0 25C#00A32C1E008F2011
(1682280135.199268) can0 22C#00A32C1E00033019
(1682280135.201123) can0 240#00A32C1E00044011
(1682280135.203272) can0 27D#00A32C1E00055019
(1682280135.205120) can0 2C9#00A32C0A00431000
(1682280135.207294) can0 2A1#00A32C0A00452000
(1682280135.209109) can0 231#00A32C0A00443100
(1682280135.211130) can0 2D0#00A32C0A00444200
(1682280135.213122) can0 22F#00A32C2700000E00
(1682280135.216505) can0 00042F11#002B
(1682280135.217222) can0 00BD0111#002B0D6CC8
(1682280135.234322) can0 385#00
(1682280135.235575) can0 3E3#C0FF00060000
(1682280135.342446) can0 685#00
(1682280135.342836) can0 085#00140000001AE876
(1682280135.343190) can0 185#00000000
(1682280135.343663) can0 285#00A2852B00441201
(1682280135.359196) can0 301#0040
(1682280135.403657) can0 0214E345#0004
(1682280135.404204) can0 038D8545#000400
(1682280135.458453) can0 37D#80FF00260000
(1682280135.560687) can0 3AC#C0FF00000000
(1682280135.625355) can0 3E3#C0FF00000000
(1682280135.673510) can0 32C#80FF00010000
(1682280135.717579) can0 31A#C0FF00000000
(1682280135.792322) can0 37D#80FF00290000
(1682280135.836371) can0 368#80FF00010000
(1682280135.839312) can0 340#80FF00010000
(1682280135.845069) can0 367#C0FF00000000
(1682280135.845311) can0 601#00
(1682280135.846193) can0 001#00180000001B2EAD
(1682280135.846841) can0 101#00000000
(1682280135.847638) can0 201#00B8012400000100
(1682280135.855414) can0 701#00092BC9FFFF0000
(1682280135.858309) can0 3A1#00
(1682280135.858607) can0 3D0#00
(1682280135.865277) can0 32F#00
(1682280135.878401) can0 331#00
(1682280135.882271) can0 3C9#00
(1682280135.923239) can0 35C#80FF00010000
(1682280136.136898) can0 62C#00
(1682280136.137384) can0 0AC#02140000001B3004
(1682280136.137846) can0 01A#02140000001B3004
(1682280136.138332) can0 068#02140000001B3004
(1682280136.138820) can0 05C#02140000001B3004
(1682280136.139291) can0 02C#02140000001B3004
(1682280136.142165) can0 040#02140000001B3004
(1682280136.143457) can0 0E3#02140000001B3004
(1682280136.145390) can0 067#02140000001B3004
(1682280136.147495) can0 07D#02140000001B3004
(1682280136.149267) can0 0C9#02140000001B3004
(1682280136.151132) can0 0A1#02140000001B3004
(1682280136.153271) can0 031#02140000001B3004
(1682280136.155382) can0 0D0#02140000001B3004
(1682280136.156166) can0 37D#80FF00280000
(1682280136.157161) can0 02F#02140000001B3004
(1682280136.159121) can0 1E3#00000000
(1682280136.162031) can0 167#00000000
(1682280136.162981) can0 1AC#00000000
(1682280136.165008) can0 11A#00000000
(1682280136.167140) can0 168#00000000
(1682280136.168989) can0 15C#00000000
(1682280136.170998) can0 12C#00000000
(1682280136.172987) can0 140#00000000
(1682280136.174982) can0 17D#00000000
(1682280136.177012) can0 1C9#00000000
(1682280136.178980) can0 1A1#00000000
(1682280136.182025) can0 131#00000000
(1682280136.183121) can0 1D0#00000000
(1682280136.183591) can0 02145C11#002B
(1682280136.184451) can0 01718511#002B0D7CFF
(1682280136.185249) can0 12F#00000000
(1682280136.187273) can0 2E3#00A32C2100691011
(1682280136.189161) can0 267#00A32C2100002011
(1682280136.192134) can0 2AC#00A32C2100603111
(1682280136.193245) can0 21A#00A32C2100604211
(1682280136.195124) can0 268#00A32C1E003D1011
(1682280136.197280) can0 25C#00A32C1E008F2011
(1682280136.199121) can0 22C#00A32C1E00033019
(1682280136.201126) can0 240#00A32C1E00044011
(1682280136.203257) can0 27D#00A32C1E00055019
(1682280136.205147) can0 2C9#00A32C0A00431000
(1682280136.207267) can0 2A1#00A32C0A00452000
(1682280136.209244) can0 231#00A32C0A00443100
(1682280136.211116) can0 2D0#00A32C0A00444200
(1682280136.213120) can0 22F#00A32C2700000E00
(1682280136.235340) can0 385#00
(1682280136.342354) can0 685#00
(1682280136.342822) can0 085#00140000001AE876
(1682280136.343151) can0 185#00000000
(1682280136.343625) can0 285#00A2852B00441201
(1682280136.360213) can0 301#0040
(1682280136.490466) can0 37D#80FF00250000
(1682280136.562494) can0 3AC#C0FF00000000
(1682280136.626449) can0 3E3#C0FF00000000
(1682280136.674651) can0 32C#80FF00010000
(1682280136.716533) can0 00042F11#002B
(1682280136.717266) can0 00BD0111#002B0D7FD2
(1682280136.718588) can0 31A#C0FF00000000
(1682280136.824652) can0 37D#80FF00290000
(1682280136.837350) can0 368#80FF00010000
(1682280136.840371) can0 340#80FF00010000
(1682280136.845193) can0 601#00
(1682280136.846010) can0 001#00180000001B2EAD
(1682280136.846419) can0 367#C0FF00000000
(1682280136.846754) can0 101#00000000
(1682280136.847624) can0 201#00B8012400000100
(1682280136.855425) can0 701#00092BCAFFFF0000
(1682280136.859250) can0 3A1#00
(1682280136.859530) can0 3D0#00
(1682280136.866163) can0 32F#00
(1682280136.879354) can0 331#00
(1682280136.883208) can0 3C9#00
(1682280136.924646) can0 35C#80FF00010000
