(1682280392.955913) can0 301#0041
(1682280392.957656) can0 32C#80FF00010000
(1682280393.002824) can0 31A#C0FF00000000
(1682280393.118887) can0 368#80FF00010000
(1682280393.125799) can0 340#80FF00010000
(1682280393.129899) can0 367#C0FF00000000
(1682280393.137320) can0 62C#00
(1682280393.137794) can0 0E3#02140000001B3004
(1682280393.138273) can0 067#02140000001B3004
(1682280393.138756) can0 0AC#02140000001B3004
(1682280393.139238) can0 01A#02140000001B3004
(1682280393.139708) can0 068#02140000001B3004
(1682280393.141437) can0 05C#02140000001B3004
(1682280393.143559) can0 02C#02140000001B3004
(1682280393.144618) can0 3A1#00
(1682280393.144894) can0 3D0#00
(1682280393.145424) can0 040#02140000001B3004
(1682280393.147596) can0 07D#02140000001B3004
(1682280393.149542) can0 0C9#02140000001B3004
(1682280393.150750) can0 32F#00
(1682280393.152455) can0 0A1#02140000001B3004
(1682280393.153432) can0 031#02140000001B3004
(1682280393.155677) can0 0D0#02140000001B3004
(1682280393.157583) can0 02F#02140000001B3004
(1682280393.158734) can0 37D#80FF00270000
(1682280393.159258) can0 1E3#00000000
(1682280393.162329) can0 167#00000000
(1682280393.163263) can0 1AC#00000000
(1682280393.163527) can0 331#00
(1682280393.165264) can0 11A#00000000
(1682280393.167285) can0 168#00000000
(1682280393.167680) can0 3C9#00
(1682280393.169258) can0 15C#00000000
(1682280393.172314) can0 12C#00000000
(1682280393.173411) can0 140#00000000
(1682280393.175250) can0 17D#00000000
(1682280393.177317) can0 1C9#00000000
(1682280393.179251) can0 1A1#00000000
(1682280393.181245) can0 131#00000000
(1682280393.183237) can0 1D0#00000000
(1682280393.185237) can0 12F#00000000
(1682280393.187397) can0 2E3#00A32C2100691011
(1682280393.189519) can0 267#00A32C2100002011
(1682280393.191365) can0 2AC#00A32C2100603111
(1682280393.193368) can0 21A#00A32C2100604211
(1682280393.195637) can0 268#00A32C1E003D1011
(1682280393.197416) can0 25C#00A32C1E008F2011
(1682280393.199537) can0 22C#00A32C1E00033019
(1682280393.201383) can0 240#00A32C1E00044011
(1682280393.203518) can0 27D#00A32C1E00055019
(1682280393.205640) can0 2C9#00A32C0A00431000
(1682280393.206711) can0 35C#80FF00010000
(1682280393.207408) can0 2A1#00A32C0A00452000
(1682280393.209508) can0 231#00A32C0A00443100
(1682280393.212412) can0 2D0#00A32C0A00444200
(1682280393.213366) can0 22F#00A32C2700000E00
(1682280393.222339) can0 00042F11#002B
(1682280393.223066) can0 00BD0111#002B0D7C9A
(1682280393.342982) can0 685#00
(1682280393.343451) can0 085#00140000001AE876
(1682280393.343773) can0 185#00000000
(1682280393.344254) can0 285#00A2852B00441201
(1682280393.493014) can0 385#00
(1682280393.546854) can0 37D#80FF00280000
(1682280393.734220) can0 02145C11#002B
(1682280393.734914) can0 01718511#002B0D8263
(1682280393.847774) can0 3AC#C0FF00000000
(1682280393.850883) can0 601#00
(1682280393.851628) can0 001#00180000001B2EAD
(1682280393.852304) can0 101#00000000
(1682280393.853034) can0 201#00B8012400000100
(1682280393.861092) can0 701#00092CCBFFFF0000
(1682280393.880865) can0 37D#80FF00290000
(1682280393.909763) can0 3E3#C0FF00000000
(1682280393.956850) can0 301#0041
(1682280393.958719) can0 32C#80FF00010000
(1682280394.003893) can0 31A#C0FF00000000
(1682280394.119936) can0 368#80FF00010000
(1682280394.126806) can0 340#80FF00010000
(1682280394.130613) can0 367#C0FF00000000
(1682280394.137184) can0 62C#00
(1682280394.137749) can0 0E3#02140000001B3004
(1682280394.138243) can0 067#02140000001B3004
(1682280394.138705) can0 0AC#02140000001B3004
(1682280394.139194) can0 01A#02140000001B3004
(1682280394.139677) can0 068#02140000001B3004
(1682280394.142457) can0 05C#02140000001B3004
(1682280394.143441) can0 02C#02140000001B3004
(1682280394.145439) can0 040#02140000001B3004
(1682280394.145763) can0 3A1#00
(1682280394.146040) can0 3D0#00
(1682280394.147580) can0 07D#02140000001B3004
(1682280394.149408) can0 0C9#02140000001B3004
(1682280394.152452) can0 0A1#02140000001B3004
(1682280394.152731) can0 32F#00
(1682280394.153415) can0 031#02140000001B3004
(1682280394.155681) can0 0D0#02140000001B3004
(1682280394.157568) can0 02F#02140000001B3004
(1682280394.159270) can0 1E3#00000000
(1682280394.161285) can0 167#00000000
(1682280394.163412) can0 1AC#00000000
(1682280394.164472) can0 331#00
(1682280394.165523) can0 11A#00000000
(1682280394.167436) can0 168#00000000
(1682280394.168608) can0 3C9#00
(1682280394.169270) can0 15C#00000000
(1682280394.171272) can0 12C#00000000
(1682280394.173428) can0 140#00000000
(1682280394.175258) can0 17D#00000000
(1682280394.177290) can0 1C9#00000000
(1682280394.179266) can0 1A1#00000000
(1682280394.182298) can0 131#00000000
(1682280394.183383) can0 1D0#00000000
(1682280394.185495) can0 12F#00000000
(1682280394.187540) can0 2E3#00A32C2100691011
(1682280394.189368) can0 267#00A32C2100002011
(1682280394.192394) can0 2AC#00A32C2100603111
(1682280394.193508) can0 21A#00A32C2100604211
(1682280394.195381) can0 268#00A32C1E003D1011
(1682280394.197553) can0 25C#00A32C1E008F2011
(1682280394.199532) can0 22C#00A32C1E00033019
(1682280394.201385) can0 240#00A32C1E00044011
(1682280394.203517) can0 27D#00A32C1E00055019
(1682280394.205643) can0 2C9#00A32C0A00431000
(1682280394.207421) can0 2A1#00A32C0A00452000
(1682280394.207827) can0 35C#80FF00010000
(1682280394.209501) can0 231#00A32C0A00443100
(1682280394.212426) can0 2D0#00A32C0A00444200
(1682280394.213522) can0 22F#00A32C2700000E00
(1682280394.214687) can0 37D#80FF00250000
(1682280394.343024) can0 685#00
(1682280394.343434) can0 085#00140000001AE876
(1682280394.343775) can0 185#00000000
(1682280394.344243) can0 285#00A2852B00441201
(1682280394.494410) can0 385#00
(1682280394.548689) can0 37D#80FF00270000
(1682280394.722419) can0 00042F11#002B
(1682280394.723150) can0 00BD0111#002B0D8182
(1682280394.744228) can0 02145C11#002B
(1682280394.744941) can0 01718511#002B0D8182
(1682280394.848657) can0 3AC#C0FF00000000
(1682280394.850852) can0 601#00
(1682280394.851648) can0 001#00180000001B2EAD
(1682280394.852351) can0 101#00000000
(1682280394.853043) can0 201#00B8012400000100
(1682280394.861075) can0 701#00092CCCFFFF0000
(1682280394.882765) can0 37D#80FF00290000
(1682280394.910767) can0 3E3#C0FF00000000
(1682280394.957872) can0 301#0041
(1682280394.959594) can0 32C#80FF00010000
(1682280395.004750) can0 31A#C0FF00000000
(1682280395.120881) can0 368#80FF00010000
(1682280395.127634) can0 340#80FF00010000
(1682280395.132908) can0 367#C0FF00000000
(1682280395.137195) can0 62C#00
(1682280395.137670) can0 068#02140000001B3004
(1682280395.138150) can0 05C#02140000001B3004
(1682280395.138635) can0 02C#02140000001B3004
(1682280395.139112) can0 040#02140000001B3004
(1682280395.139769) can0 0E3#02140000001B3004
(1682280395.141434) can0 067#02140000001B3004
(1682280395.143561) can0 0AC#02140000001B3004
(1682280395.145671) can0 01A#02140000001B3004
(1682280395.146487) can0 3A1#00
(1682280395.146764) can0 3D0#00
(1682280395.147718) can0 07D#02140000001B3004
(1682280395.149543) can0 0C9#02140000001B3004
(1682280395.151438) can0 0A1#02140000001B3004
(1682280395.153560) can0 031#02140000001B3004
(1682280395.153848) can0 32F#00
(1682280395.155420) can0 0D0#02140000001B3004
(1682280395.157443) can0 02F#02140000001B3004
(1682280395.159404) can0 1E3#00000000
(1682280395.162312) can0 167#00000000
(1682280395.163404) can0 1AC#00000000
(1682280395.165539) can0 11A#00000000
(1682280395.165814) can0 331#00
(1682280395.167446) can0 168#00000000
(1682280395.169406) can0 15C#00000000
(1682280395.169648) can0 3C9#00
(1682280395.171276) can0 12C#00000000
(1682280395.173267) can0 140#00000000
(1682280395.175266) can0 17D#00000000
(1682280395.177313) can0 1C9#00000000
(1682280395.179265) can0 1A1#00000000
(1682280395.182323) can0 131#00000000
(1682280395.183381) can0 1D0#00000000
(1682280395.185500) can0 12F#00000000
(1682280395.187391) can0 2E3#00A32C2100691011
(1682280395.189382) can0 267#00A32C2100002011
(1682280395.192394) can0 2AC#00A32C2100603111
(1682280395.193509) can0 21A#00A32C2100604211
(1682280395.195389) can0 268#00A32C1E003D1011
(1682280395.197554) can0 25C#00A32C1E008F2011
(1682280395.199389) can0 22C#00A32C1E00033019
(1682280395.201393) can0 240#00A32C1E00044011
(1682280395.203534) can0 27D#00A32C1E00055019
(1682280395.205383) can0 2C9#00A32C0A00431000
(1682280395.207546) can0 2A1#00A32C0A00452000
(1682280395.208317) can0 35C#80FF00010000
(1682280395.209500) can0 231#00A32C0A00443100
(1682280395.212426) can0 2D0#00A32C0A00444200
(1682280395.213379) can0 22F#00A32C2700000E00
(1682280395.216569) can0 37D#80FF00210000
(1682280395.342954) can0 685#00
(1682280395.343423) can0 085#00140000001AE876
(1682280395.343759) can0 185#00000000
(1682280395.344233) can0 285#00A2852B00441201
(1682280395.495014) can0 385#00
(1682280395.550651) can0 37D#80FF00260000
(1682280395.754233) can0 02145C11#002B
(1682280395.754937) can0 01718511#002B0D84D3
(1682280395.849602) can0 3AC#C0FF00000000
(1682280395.850871) can0 601#00
(1682280395.851689) can0 001#00180000001B2EAD
(1682280395.852350) can0 101#00000000
(1682280395.853072) can0 201#00B8012400000100
(1682280395.861097) can0 701#00092CCDFFFF0000
(1682280395.884797) can0 37D#80FF00290000
(1682280395.912731) can0 3E3#C0FF00000000
(1682280395.958892) can0 301#0041
(1682280395.960653) can0 32C#80FF00010000
(1682280396.005835) can0 31A#C0FF00000000
(1682280396.122912) can0 368#80FF00010000
(1682280396.128660) can0 340#80FF00010000
(1682280396.133918) can0 367#C0FF00000000
(1682280396.137314) can0 62C#00
(1682280396.137806) can0 0E3#02140000001B3004
(1682280396.138270) can0 067#02140000001B3004
(1682280396.138739) can0 0AC#02140000001B3004
(1682280396.139212) can0 01A#02140000001B3004
(1682280396.139696) can0 068#02140000001B3004
(1682280396.141430) can0 05C#02140000001B3004
(1682280396.143429) can0 02C#02140000001B3004
(1682280396.145686) can0 040#02140000001B3004
(1682280396.147584) can0 07D#02140000001B3004
(1682280396.147858) can0 3A1#00
(1682280396.148102) can0 3D0#00
(1682280396.149544) can0 0C9#02140000001B3004
(1682280396.151433) can0 0A1#02140000001B3004
(1682280396.153552) can0 031#02140000001B3004
(1682280396.154580) can0 32F#00
(1682280396.155415) can0 0D0#02140000001B3004
(1682280396.157586) can0 02F#02140000001B3004
(1682280396.159272) can0 1E3#00000000
(1682280396.161271) can0 167#00000000
(1682280396.163401) can0 1AC#00000000
(1682280396.165531) can0 11A#00000000
(1682280396.166246) can0 331#00
(1682280396.167314) can0 168#00000000
(1682280396.169282) can0 15C#00000000
(1682280396.170451) can0 3C9#00
(1682280396.172312) can0 12C#00000000
(1682280396.173408) can0 140#00000000
(1682280396.175523) can0 17D#00000000
(1682280396.177440) can0 1C9#00000000
(1682280396.179413) can0 1A1#00000000
(1682280396.182313) can0 131#00000000
(1682280396.183406) can0 1D0#00000000
(1682280396.185494) can0 12F#00000000
(1682280396.187548) can0 2E3#00A32C2100691011
(1682280396.189379) can0 267#00A32C2100002011
(1682280396.191376) can0 2AC#00A32C2100603111
(1682280396.193379) can0 21A#00A32C2100604211
(1682280396.195639) can0 268#00A32C1E003D1011
(1682280396.197414) can0 25C#00A32C1E008F2011
(1682280396.199530) can0 22C#00A32C1E00033019
(1682280396.202431) can0 240#00A32C1E00044011
(1682280396.203386) can0 27D#00A32C1E00055019
(1682280396.205635) can0 2C9#00A32C0A00431000
(1682280396.207407) can0 2A1#00A32C0A00452000
(1682280396.209510) can0 231#00A32C0A00443100
(1682280396.209958) can0 35C#80FF00010000
(1682280396.211388) can0 2D0#00A32C0A00444200
(1682280396.213517) can0 22F#00A32C2700000E00
(1682280396.218680) can0 37D#80FF00240000
(1682280396.222609) can0 00042F11#002B
(1682280396.223322) can0 00BD0111#002B0D7E3A
(1682280396.342971) can0 685#00
(1682280396.343443) can0 085#00140000001AE876
(1682280396.343784) can0 185#00000000
(1682280396.344248) can0 285#00A2852B00441201
(1682280396.495994) can0 385#00
(1682280396.552967) can0 37D#80FF00280000
(1682280396.764317) can0 02145C11#002B
(1682280396.764989) can0 01718511#002B0D8354
(1682280396.850766) can0 3AC#C0FF00000000
(1682280396.851017) can0 601#00
(1682280396.851742) can0 001#00180000001B2EAD
(1682280396.852349) can0 101#00000000
(1682280396.853086) can0 201#00B8012400000100
(1682280396.861115) can0 701#00092CCEFFFF0000
(1682280396.886482) can0 37D#80FF00290000
(1682280396.913763) can0 3E3#C0FF00000000
(1682280396.959930) can0 301#0041
(1682280396.962735) can0 32C#80FF00010000
(1682280397.006829) can0 31A#C0FF00000000
(1682280397.123936) can0 368#80FF00010000
(1682280397.129683) can0 340#80FF00010000
(1682280397.134354) can0 367#C0FF00000000
(1682280397.137319) can0 62C#00
(1682280397.137826) can0 0E3#02140000001B3004
(1682280397.138314) can0 067#02140000001B3004
(1682280397.138780) can0 0AC#02140000001B3004
(1682280397.139254) can0 01A#02140000001B3004
(1682280397.139751) can0 068#02140000001B3004
(1682280397.141440) can0 05C#02140000001B3004
(1682280397.143571) can0 02C#02140000001B3004
(1682280397.145687) can0 040#02140000001B3004
(1682280397.147589) can0 07D#02140000001B3004
(1682280397.148480) can0 3A1#00
(1682280397.148753) can0 3D0#00
(1682280397.149425) can0 0C9#02140000001B3004
(1682280397.151421) can0 0A1#02140000001B3004
(1682280397.153570) can0 031#02140000001B3004
(1682280397.155424) can0 0D0#02140000001B3004
(1682280397.155702) can0 32F#00
(1682280397.157584) can0 02F#02140000001B3004
(1682280397.159276) can0 1E3#00000000
(1682280397.161272) can0 167#00000000
(1682280397.163282) can0 1AC#00000000
(1682280397.165529) can0 11A#00000000
(1682280397.167309) can0 168#00000000
(1682280397.167723) can0 331#00
(1682280397.169277) can0 15C#00000000
(1682280397.171278) can0 12C#00000000
(1682280397.172472) can0 3C9#00
(1682280397.173411) can0 140#00000000
(1682280397.175525) can0 17D#00000000
(1682280397.177447) can0 1C9#00000000
(1682280397.179422) can0 1A1#00000000
(1682280397.182301) can0 131#00000000
(1682280397.183279) can0 1D0#00000000
(1682280397.185271) can0 12F#00000000
(1682280397.187557) can0 2E3#00A32C2100691011
(1682280397.189527) can0 267#00A32C2100002011
(1682280397.191379) can0 2AC#00A32C2100603111
(1682280397.193381) can0 21A#00A32C2100604211
(1682280397.195656) can0 268#00A32C1E003D1011
(1682280397.197426) can0 25C#00A32C1E008F2011
(1682280397.199527) can0 22C#00A32C1E00033019
(1682280397.202432) can0 240#00A32C1E00044011
(1682280397.203394) can0 27D#00A32C1E00055019
(1682280397.205638) can0 2C9#00A32C0A00431000
(1682280397.207556) can0 2A1#00A32C0A00452000
(1682280397.209389) can0 231#00A32C0A00443100
(1682280397.210935) can0 35C#80FF00010000
(1682280397.211417) can0 2D0#00A32C0A00444200
(1682280397.213394) can0 22F#00A32C2700000E00
(1682280397.220927) can0 37D#80FF00230000
(1682280397.342980) can0 685#00
(1682280397.343457) can0 085#00140000001AE876
(1682280397.343733) can0 185#00000000
(1682280397.344257) can0 285#00A2852B00441201
(1682280397.496999) can0 385#00
(1682280397.554771) can0 37D#80FF00260000
(1682280397.684456) can0 02140002#55
(1682280397.684732) can0 02140002#AA
(1682280397.685105) can0 02158502#5500
(1682280397.685441) can0 02158502#AA00
(1682280397.685801) can0 038D8502#5500
(1682280397.686133) can0 019D8502#5500
(1682280397.686508) can0 02B18502#5500
(1682280397.686850) can0 00698502#5500
(1682280397.687214) can0 01A18502#5500
(1682280397.687540) can0 01718502#5500
(1682280397.687921) can0 00B18502#5500
(1682280397.688252) can0 01018502#5500
(1682280397.688616) can0 01F58502#5500
(1682280397.688980) can0 03258502#5500
(1682280397.689305) can0 02858502#5500
(1682280397.689699) can0 00C58502#5500
(1682280397.689981) can0 03418502#5500
(1682280397.690347) can0 00BD8502#5500
(1682280397.690667) can0 038D8502#AA00
(1682280397.691052) can0 019D8502#AA09
(1682280397.691411) can0 02B18502#AA09
(1682280397.691749) can0 00698502#AA09
(1682280397.692113) can0 01A18502#AA09
(1682280397.692472) can0 01718502#AA09
(1682280397.692806) can0 00B18502#AA09
(1682280397.693166) can0 01018502#AA09
(1682280397.693499) can0 01F58502#AA09
(1682280397.693867) can0 03258502#AA09
(1682280397.694227) can0 02858502#AA09
(1682280397.694580) can0 00C58502#AA09
(1682280397.694905) can0 02147D42#0004
(1682280397.695235) can0 03418502#AA09
(1682280397.695611) can0 00BD8502#AA09
(1682280397.696117) can0 01F58542#0004FE1117E9
(1682280397.696672) can0 02147D43#0004DC263966
(1682280397.697124) can0 01F58543#0004
(1682280397.702424) can0 37D#80FF00250000
(1682280397.704290) can0 02167D01#
(1682280397.722673) can0 00042F11#002B
(1682280397.723415) can0 00BD0111#002B0D7A99
(1682280397.753627) can0 37D#81FF015B0000
(1682280397.774212) can0 02145C11#002B
(1682280397.774949) can0 01718511#002B0D6F12
(1682280397.804678) can0 37D#81FF021E0000
(1682280397.850882) can0 601#00
(1682280397.851486) can0 001#00180000001B2EAD
(1682280397.852156) can0 101#00000000
(1682280397.852575) can0 3AC#C0FF00000000
(1682280397.853069) can0 201#00B8012400000100
(1682280397.855729) can0 37D#81FF02440000
(1682280397.861139) can0 701#00092CCFFFFF0000
(1682280397.906512) can0 37D#81FF025A0000
(1682280397.914415) can0 3E3#C0FF00000000
(1682280397.957850) can0 37D#81FF02630000
(1682280397.960764) can0 301#0041
(1682280397.963930) can0 32C#80FF00010000
(1682280398.007520) can0 31A#C0FF00000000
(1682280398.022636) can0 37D#81FF02640000
(1682280398.073937) can0 37D#81FF025E0000
(1682280398.124587) can0 368#80FF00010000
(1682280398.124990) can0 37D#81FF02590000
(1682280398.130980) can0 340#80FF00010000
(1682280398.135763) can0 367#C0FF00000000
(1682280398.137337) can0 62C#00
(1682280398.137816) can0 05C#02140000001B3004
(1682280398.138305) can0 02C#02140000001B3004
(1682280398.138782) can0 040#02140000001B3004
(1682280398.139260) can0 0E3#02140000001B3004
(1682280398.139736) can0 067#02140000001B3004
(1682280398.142463) can0 0AC#02140000001B3004
(1682280398.143557) can0 01A#02140000001B3004
(1682280398.145437) can0 068#02140000001B3004
(1682280398.147707) can0 07D#06140000001B3004
(1682280398.149563) can0 0C9#02140000001B3004
(1682280398.149809) can0 3A1#00
(1682280398.150060) can0 3D0#00
(1682280398.152461) can0 0A1#02140000001B3004
(1682280398.153422) can0 031#02140000001B3004
(1682280398.155682) can0 0D0#02140000001B3004
(1682280398.156313) can0 32F#00
(1682280398.157452) can0 02F#02140000001B3004
(1682280398.159415) can0 1E3#00000000
(1682280398.161289) can0 167#00000000
(1682280398.163419) can0 1AC#00000000
(1682280398.165559) can0 11A#00000000
(1682280398.167450) can0 168#00000000
(1682280398.168347) can0 331#00
(1682280398.169415) can0 15C#00000000
(1682280398.171291) can0 12C#00000000
(1682280398.173295) can0 140#00000000
(1682280398.173569) can0 3C9#00
(1682280398.175270) can0 17D#00000000
(1682280398.175955) can0 37D#81FF02520000
(1682280398.177455) can0 1C9#00000000
(1682280398.179412) can0 1A1#00000000
(1682280398.181294) can0 131#00000000
(1682280398.183286) can0 1D0#00000000
(1682280398.185286) can0 12F#00000000
(1682280398.187436) can0 2E3#00A32C2100691011
(1682280398.189540) can0 267#00A32C2100002011
(1682280398.192429) can0 2AC#00A32C2100603111
(1682280398.193378) can0 21A#00A32C2100604211
(1682280398.195643) can0 268#00A32C1E003D1011
(1682280398.197426) can0 25C#00A32C1E008F2011
(1682280398.199398) can0 22C#00A32C1E00033019
(1682280398.201397) can0 240#00A32C1E00044011
(1682280398.203549) can0 27D#00A32C1E00055019
(1682280398.204307) can0 02147D44#0004
(1682280398.205645) can0 2C9#00A32C0A00431000
(1682280398.207412) can0 2A1#00A32C0A00452000
(1682280398.209384) can0 231#00A32C0A00443100
(1682280398.211396) can0 2D0#00A32C0A00444200
(1682280398.212734) can0 35C#80FF00010000
(1682280398.213526) can0 22F#00A32C2700000E00
(1682280398.226600) can0 37D#81FF024B0000
(1682280398.277900) can0 37D#81FF02470000
(1682280398.328708) can0 37D#81FF02440000
(1682280398.343008) can0 685#00
(1682280398.343493) can0 085#00140000001AE876
(1682280398.343771) can0 185#00000000
(1682280398.344297) can0 285#00A2852B00441201
(1682280398.379640) can0 37D#81FF02410000
(1682280398.431035) can0 37D#81FF023D0000
(1682280398.482852) can0 37D#81FF02390000
(1682280398.497996) can0 385#00
(1682280398.533687) can0 37D#81FF02350000
(1682280398.592795) can0 37D#81FF02340000
(1682280398.652945) can0 37D#81FF02330000
(1682280398.714340) can0 02147D45#0004
(1682280398.714797) can0 01F58545#000400
(1682280398.784226) can0 02145C11#002B
(1682280398.784950) can0 01718511#002B0D5700
(1682280398.850945) can0 601#00
(1682280398.851747) can0 001#00180000001B2EAD
(1682280398.852391) can0 101#00000000
(1682280398.853132) can0 201#00B8012400000100
(1682280398.853746) can0 3AC#C0FF00000000
(1682280398.861166) can0 701#00092CD0FFFF0000
(1682280398.915731) can0 3E3#C0FF00000000
(1682280398.962001) can0 301#0041
(1682280398.964566) can0 32C#80FF00010000
(1682280398.986779) can0 37D#81FF022D0000
(1682280399.008748) can0 31A#C0FF00000000
(1682280399.014335) can0 02147D42#0004
(1682280399.014914) can0 01F58542#0004C1C81F3A
(1682280399.015495) can0 02147D43#0004D062D148
(1682280399.015932) can0 01F58543#0004
(1682280399.024290) can0 02167D00#
(1682280399.037536) can0 37D#80FF022F0000
(1682280399.088778) can0 37D#80FF01C80000
(1682280399.125710) can0 368#80FF00010000
(1682280399.132937) can0 340#80FF00010000
(1682280399.136644) can0 367#C0FF00000000
(1682280399.137194) can0 62C#00
(1682280399.137694) can0 0E3#02140000001B3004
(1682280399.138130) can0 067#02140000001B3004
(1682280399.138617) can0 0AC#02140000001B3004
(1682280399.139088) can0 01A#02140000001B3004
(1682280399.139586) can0 068#02140000001B3004
(1682280399.140001) can0 37D#80FF01590000
(1682280399.142463) can0 05C#02140000001B3004
(1682280399.143443) can0 02C#02140000001B3004
(1682280399.145439) can0 040#02140000001B3004
(1682280399.147596) can0 07D#06140000001B3004
(1682280399.149419) can0 0C9#02140000001B3004
(1682280399.150621) can0 3A1#00
(1682280399.150895) can0 3D0#00
(1682280399.151437) can0 0A1#02140000001B3004
(1682280399.153558) can0 031#02140000001B3004
(1682280399.155425) can0 0D0#02140000001B3004
(1682280399.157606) can0 02F#02140000001B3004
(1682280399.157850) can0 32F#00
(1682280399.159267) can0 1E3#00000000
(1682280399.162327) can0 167#00000000
(1682280399.163275) can0 1AC#00000000
(1682280399.165286) can0 11A#00000000
(1682280399.167300) can0 168#00000000
(1682280399.169436) can0 15C#00000000
(1682280399.169712) can0 331#00
(1682280399.172313) can0 12C#00000000
(1682280399.173407) can0 140#00000000
(1682280399.174462) can0 3C9#00
(1682280399.175273) can0 17D#00000000
(1682280399.177312) can0 1C9#00000000
(1682280399.179415) can0 1A1#00000000
(1682280399.182318) can0 131#00000000
(1682280399.183411) can0 1D0#00000000
(1682280399.185522) can0 12F#00000000
(1682280399.187570) can0 2E3#00A32C2100691011
(1682280399.189569) can0 267#00A32C2100002011
(1682280399.190937) can0 37D#80FF01030000
(1682280399.192444) can0 2AC#00A32C2100603111
(1682280399.193374) can0 21A#00A32C2100604211
(1682280399.195393) can0 268#00A32C1E003D1011
(1682280399.197560) can0 25C#00A32C1E008F2011
(1682280399.199548) can0 22C#00A32C1E00033019
(1682280399.202443) can0 240#00A32C1E00044011
(1682280399.203406) can0 27D#00A32C1E00055019
(1682280399.205639) can0 2C9#00A32C0A00431000
(1682280399.207554) can0 2A1#00A32C0A00452000
(1682280399.209376) can0 231#00A32C0A00443100
(1682280399.211391) can0 2D0#00A32C0A00444200
(1682280399.213512) can0 22F#00A32C2700000E00
(1682280399.213932) can0 35C#80FF00010000
(1682280399.223098) can0 00042F11#002B
(1682280399.223837) can0 00BD0111#002B0D693D
(1682280399.242646) can0 37D#80FF00C10000
(1682280399.293904) can0 37D#80FF00970000
(1682280399.343011) can0 685#00
(1682280399.343482) can0 085#00140000001AE876
(1682280399.343819) can0 185#00000000
(1682280399.344297) can0 285#00A2852B00441201
(1682280399.344785) can0 37D#80FF00790000
(1682280399.395663) can0 37D#80FF00630000
(1682280399.446834) can0 37D#80FF00510000
(1682280399.497635) can0 37D#80FF00460000
(1682280399.498993) can0 385#00
(1682280399.524334) can0 02147D44#0004
(1682280399.548927) can0 37D#80FF003E0000
(1682280399.599696) can0 37D#80FF00380000
(1682280399.651027) can0 37D#80FF00330000
(1682280399.702834) can0 37D#80FF00300000
(1682280399.753578) can0 37D#80FF002E0000
(1682280399.794250) can0 02145C11#002B
(1682280399.794974) can0 01718511#002B0D8229
(1682280399.804686) can0 37D#80FF002C0000
(1682280399.850996) can0 601#00
(1682280399.851757) can0 001#00180000001B2EAD
(1682280399.852428) can0 101#00000000
(1682280399.853183) can0 201#00B8012400000100
(1682280399.854763) can0 3AC#C0FF00000000
(1682280399.855729) can0 37D#80FF002B0000
(1682280399.861199) can0 701#00092CD1FFFF0000
(1682280399.906508) can0 37D#80FF002A0000
(1682280399.916702) can0 3E3#C0FF00000000
(1682280399.957871) can0 37D#80FF00290000
(1682280399.962999) can0 301#0041
(1682280399.965712) can0 32C#80FF00010000
(1682280400.009720) can0 31A#C0FF00000000
(1682280400.034345) can0 02147D45#0004
(1682280400.034800) can0 01F58545#000400
(1682280400.126459) can0 368#80FF00010000
(1682280400.133763) can0 340#80FF00010000
(1682280400.137190) can0 62C#00
(1682280400.137604) can0 367#C0FF00000000
(1682280400.138074) can0 0AC#02140000001B3004
(1682280400.138564) can0 01A#02140000001B3004
(1682280400.139039) can0 068#02140000001B3004
(1682280400.139519) can0 05C#02140000001B3004
(1682280400.140000) can0 02C#02140000001B3004
(1682280400.142475) can0 040#02140000001B3004
(1682280400.143758) can0 0E3#02140000001B3004
(1682280400.145727) can0 067#02140000001B3004
(1682280400.147794) can0 07D#02140000001B3004
(1682280400.149562) can0 0C9#02140000001B3004
(1682280400.151444) can0 0A1#02140000001B3004
(1682280400.152514) can0 3A1#00
(1682280400.152797) can0 3D0#00
(1682280400.153431) can0 031#02140000001B3004
(1682280400.155440) can0 0D0#02140000001B3004
(1682280400.157456) can0 02F#02140000001B3004
(1682280400.158564) can0 32F#00
(1682280400.159294) can0 1E3#00000000
(1682280400.161280) can0 167#00000000
(1682280400.163411) can0 1AC#00000000
(1682280400.165544) can0 11A#00000000
(1682280400.167442) can0 168#00000000
(1682280400.169418) can0 15C#00000000
(1682280400.170646) can0 331#00
(1682280400.171290) can0 12C#00000000
(1682280400.173294) can0 140#00000000
(1682280400.175285) can0 17D#00000000
(1682280400.175529) can0 3C9#00
(1682280400.177303) can0 1C9#00000000
(1682280400.179437) can0 1A1#00000000
(1682280400.182318) can0 131#00000000
(1682280400.183422) can0 1D0#00000000
(1682280400.185536) can0 12F#00000000
(1682280400.187575) can0 2E3#00A32C2100691011
(1682280400.189410) can0 267#00A32C2100002011
(1682280400.192435) can0 2AC#00A32C2100603111
(1682280400.193394) can0 21A#00A32C2100604211
(1682280400.195636) can0 268#00A32C1E003D1011
(1682280400.197566) can0 25C#00A32C1E008F2011
(1682280400.199395) can0 22C#00A32C1E00033019
(1682280400.202430) can0 240#00A32C1E00044011
(1682280400.203539) can0 27D#00A32C1E00055019
(1682280400.205398) can0 2C9#00A32C0A00431000
(1682280400.207555) can0 2A1#00A32C0A00452000
(1682280400.209375) can0 231#00A32C0A00443100
(1682280400.211398) can0 2D0#00A32C0A00444200
(1682280400.213524) can0 22F#00A32C2700000E00
(1682280400.214860) can0 35C#80FF00010000
(1682280400.292872) can0 37D#80FF00230000
(1682280400.343021) can0 685#00
(1682280400.343494) can0 085#00140000001AE876
(1682280400.343779) can0 185#00000000
(1682280400.344299) can0 285#00A2852B00441201
(1682280400.500023) can0 385#00
(1682280400.626873) can0 37D#80FF00270000
(1682280400.723137) can0 00042F11#002B
(1682280400.723844) can0 00BD0111#002B0D8631
(1682280400.804235) can0 02145C11#002B
(1682280400.804970) can0 01718511#002B0D8824
(1682280400.850991) can0 601#00
(1682280400.851766) can0 001#00180000001B2EAD
(1682280400.852423) can0 101#00000000
(1682280400.853201) can0 201#00B8012400000100
(1682280400.856069) can0 3AC#C0FF00000000
(1682280400.861219) can0 701#00092CD2FFFF0000
(1682280400.917836) can0 3E3#C0FF00000000
(1682280400.960786) can0 37D#80FF00290000
(1682280400.964025) can0 301#0041
(1682280400.966793) can0 32C#80FF00010000
(1682280401.010980) can0 31A#C0FF00000000
(1682280401.127609) can0 368#80FF00010000
(1682280401.134871) can0 340#80FF00010000
(1682280401.137324) can0 62C#00
(1682280401.137796) can0 0E3#02140000001B3004
(1682280401.138276) can0 067#02140000001B3004
(1682280401.138756) can0 0AC#02140000001B3004
(1682280401.139241) can0 01A#02140000001B3004
(1682280401.139636) can0 367#C0FF00000000
(1682280401.140125) can0 068#02140000001B3004
(1682280401.141429) can0 05C#02140000001B3004
(1682280401.143576) can0 02C#02140000001B3004
(1682280401.145716) can0 040#02140000001B3004
(1682280401.147463) can0 07D#02140000001B3004
(1682280401.149569) can0 0C9#02140000001B3004
(1682280401.151438) can0 0A1#02140000001B3004
(1682280401.153576) can0 031#02140000001B3004
(1682280401.153827) can0 3A1#00
(1682280401.154067) can0 3D0#00
(1682280401.155422) can0 0D0#02140000001B3004
(1682280401.157609) can0 02F#02140000001B3004
(1682280401.159290) can0 1E3#00000000
(1682280401.159574) can0 32F#00
(1682280401.162334) can0 167#00000000
(1682280401.163290) can0 1AC#00000000
(1682280401.165537) can0 11A#00000000
(1682280401.167440) can0 168#00000000
(1682280401.169412) can0 15C#00000000
(1682280401.171289) can0 12C#00000000
(1682280401.172705) can0 331#00
(1682280401.173439) can0 140#00000000
(1682280401.175287) can0 17D#00000000
(1682280401.176390) can0 3C9#00
(1682280401.177449) can0 1C9#00000000
(1682280401.179418) can0 1A1#00000000
(1682280401.182306) can0 131#00000000
(1682280401.183409) can0 1D0#00000000
(1682280401.185522) can0 12F#00000000
(1682280401.187564) can0 2E3#00A32C2100691011
(1682280401.189554) can0 267#00A32C2100002011
(1682280401.191411) can0 2AC#00A32C2100603111
(1682280401.193413) can0 21A#00A32C2100604211
(1682280401.195686) can0 268#00A32C1E003D1011
(1682280401.197427) can0 25C#00A32C1E008F2011
(1682280401.199529) can0 22C#00A32C1E00033019
(1682280401.202441) can0 240#00A32C1E00044011
(1682280401.203401) can0 27D#00A32C1E00055019
(1682280401.205645) can0 2C9#00A32C0A00431000
(1682280401.207422) can0 2A1#00A32C0A00452000
(1682280401.209390) can0 231#00A32C0A00443100
(1682280401.212421) can0 2D0#00A32C0A00444200
(1682280401.213534) can0 22F#00A32C2700000E00
(1682280401.215983) can0 35C#80FF00010000
(1682280401.294554) can0 37D#80FF00230000
(1682280401.342997) can0 685#00
(1682280401.343470) can0 085#00140000001AE876
(1682280401.343803) can0 185#00000000
(1682280401.344285) can0 285#00A2852B00441201
(1682280401.501044) can0 385#00
(1682280401.628943) can0 37D#80FF00270000
(1682280401.814287) can0 02145C11#002B
(1682280401.814971) can0 01718511#002B0D8424
(1682280401.851019) can0 601#00
(1682280401.851803) can0 001#00180000001B2EAD
(1682280401.852518) can0 101#00000000
(1682280401.853408) can0 201#00B8012400000100
(1682280401.856559) can0 3AC#C0FF00000000
(1682280401.861280) can0 701#00092CD3FFFF0000
(1682280401.918854) can0 3E3#C0FF00000000
(1682280401.962825) can0 37D#80FF00290000
(1682280401.965029) can0 301#0041
(1682280401.967824) can0 32C#80FF00010000
(1682280402.012406) can0 31A#C0FF00000000
(1682280402.128585) can0 368#80FF00010000
(1682280402.135960) can0 340#80FF00010000
(1682280402.137198) can0 62C#00
(1682280402.137784) can0 0E3#02140000001B3004
(1682280402.138254) can0 067#02140000001B3004
(1682280402.138741) can0 0AC#02140000001B3004
(1682280402.139204) can0 01A#02140000001B3004
(1682280402.139695) can0 068#02140000001B3004
(1682280402.140092) can0 367#C0FF00000000
(1682280402.142466) can0 05C#02140000001B3004
(1682280402.143551) can0 02C#02140000001B3004
(1682280402.145440) can0 040#02140000001B3004
(1682280402.147457) can0 07D#02140000001B3004
(1682280402.149567) can0 0C9#02140000001B3004
(1682280402.151436) can0 0A1#02140000001B3004
(1682280402.153575) can0 031#02140000001B3004
(1682280402.154475) can0 3A1#00
(1682280402.154751) can0 3D0#00
(1682280402.155434) can0 0D0#02140000001B3004
(1682280402.157595) can0 02F#02140000001B3004
(1682280402.159420) can0 1E3#00000000
(1682280402.160583) can0 32F#00
(1682280402.161273) can0 167#00000000
(1682280402.163284) can0 1AC#00000000
(1682280402.165535) can0 11A#00000000
(1682280402.167436) can0 168#00000000
(1682280402.169412) can0 15C#00000000
(1682280402.171298) can0 12C#00000000
(1682280402.173283) can0 140#00000000
(1682280402.173650) can0 331#00
(1682280402.175270) can0 17D#00000000
(1682280402.177318) can0 1C9#00000000
(1682280402.177557) can0 3C9#00
(1682280402.179417) can0 1A1#00000000
(1682280402.182304) can0 131#00000000
(1682280402.183408) can0 1D0#00000000
(1682280402.185521) can0 12F#00000000
(1682280402.187562) can0 2E3#00A32C2100691011
(1682280402.189556) can0 267#00A32C2100002011
(1682280402.191410) can0 2AC#00A32C2100603111
(1682280402.193411) can0 21A#00A32C2100604211
(1682280402.195687) can0 268#00A32C1E003D1011
(1682280402.197454) can0 25C#00A32C1E008F2011
(1682280402.199545) can0 22C#00A32C1E00033019
(1682280402.202439) can0 240#00A32C1E00044011
(1682280402.203398) can0 27D#00A32C1E00055019
(1682280402.205649) can0 2C9#00A32C0A00431000
(1682280402.207425) can0 2A1#00A32C0A00452000
(1682280402.209517) can0 231#00A32C0A00443100
(1682280402.212423) can0 2D0#00A32C0A00444200
(1682280402.213382) can0 22F#00A32C2700000E00
(1682280402.216441) can0 35C#80FF00010000
(1682280402.223570) can0 00042F11#002B
(1682280402.224312) can0 00BD0111#002B0D7FD2
(1682280402.296485) can0 37D#80FF00240000
(1682280402.343003) can0 685#00
(1682280402.343470) can0 085#00140000001AE876
(1682280402.343811) can0 185#00000000
(1682280402.344277) can0 285#00A2852B00441201
(1682280402.502009) can0 385#00
(1682280402.631009) can0 37D#80FF00270000
(1682280402.824239) can0 02145C11#002B
(1682280402.824972) can0 01718511#002B0D86AE
(1682280402.851014) can0 601#00
(1682280402.851830) can0 001#00180000001B2EAD
(1682280402.852508) can0 101#00000000
(1682280402.853224) can0 201#00B8012400000100
(1682280402.857924) can0 3AC#C0FF00000000
(1682280402.861247) can0 701#00092CD4FFFF0000
(1682280402.919716) can0 3E3#C0FF00000000
(1682280402.964762) can0 37D#80FF00290000
(1682280402.966061) can0 301#0041
(1682280402.968688) can0 32C#80FF00010000
(1682280403.013860) can0 31A#C0FF00000000
(1682280403.129909) can0 368#80FF00010000
(1682280403.136771) can0 340#80FF00010000
(1682280403.137198) can0 62C#00
(1682280403.137711) can0 0E3#02140000001B3004
(1682280403.138167) can0 067#02140000001B3004
(1682280403.138624) can0 0AC#02140000001B3004
(1682280403.139103) can0 01A#02140000001B3004
(1682280403.139588) can0 068#02140000001B3004
(1682280403.140769) can0 367#C0FF00000000
(1682280403.141437) can0 05C#02140000001B3004
(1682280403.143435) can0 02C#02140000001B3004
(1682280403.145693) can0 040#02140000001B3004
(1682280403.147607) can0 07D#02140000001B3004
(1682280403.149421) can0 0C9#02140000001B3004
(1682280403.152460) can0 0A1#02140000001B3004
(1682280403.153425) can0 031#02140000001B3004
(1682280403.155686) can0 0D0#02140000001B3004
(1682280403.155963) can0 3D0#00
(1682280403.156204) can0 3A1#00
(1682280403.157451) can0 02F#02140000001B3004
(1682280403.159410) can0 1E3#00000000
(1682280403.162330) can0 167#00000000
(1682280403.162631) can0 32F#00
(1682280403.163416) can0 1AC#00000000
(1682280403.165532) can0 11A#00000000
(1682280403.167453) can0 168#00000000
(1682280403.169417) can0 15C#00000000
(1682280403.172313) can0 12C#00000000
(1682280403.173422) can0 140#00000000
(1682280403.174449) can0 331#00
(1682280403.175278) can0 17D#00000000
(1682280403.177310) can0 1C9#00000000
(1682280403.178583) can0 3C9#00
(1682280403.179432) can0 1A1#00000000
(1682280403.182322) can0 131#00000000
(1682280403.183415) can0 1D0#00000000
(1682280403.185540) can0 12F#00000000
(1682280403.187577) can0 2E3#00A32C2100691011
(1682280403.189407) can0 267#00A32C2100002011
(1682280403.192426) can0 2AC#00A32C2100603111
(1682280403.193541) can0 21A#00A32C2100604211
(1682280403.195411) can0 268#00A32C1E003D1011
(1682280403.197580) can0 25C#00A32C1E008F2011
(1682280403.199568) can0 22C#00A32C1E00033019
(1682280403.201398) can0 240#00A32C1E00044011
(1682280403.203530) can0 27D#00A32C1E00055019
(1682280403.205651) can0 2C9#00A32C0A00431000
(1682280403.207415) can0 2A1#00A32C0A00452000
(1682280403.209522) can0 231#00A32C0A00443100
(1682280403.212428) can0 2D0#00A32C0A00444200
(1682280403.213387) can0 22F#00A32C2700000E00
(1682280403.217828) can0 35C#80FF00010000
(1682280403.298569) can0 37D#80FF00260000
(1682280403.343035) can0 685#00
(1682280403.343498) can0 085#00140000001AE876
(1682280403.343828) can0 185#00000000
(1682280403.344314) can0 285#00A2852B00441201
(1682280403.503042) can0 385#00
(1682280403.632959) can0 37D#80FF00290000
(1682280403.723625) can0 00042F11#002B
(1682280403.724326) can0 00BD0111#002B0D8673
(1682280403.834250) can0 02145C11#002B
(1682280403.834950) can0 01718511#002B0D8673
(1682280403.851032) can0 601#00
(1682280403.851844) can0 001#00180000001B2EAD
(1682280403.852530) can0 101#00000000
(1682280403.853242) can0 201#00B8012400000100
(1682280403.858944) can0 3AC#C0FF00000000
(1682280403.861266) can0 701#00092CD5FFFF0000
(1682280403.920892) can0 3E3#C0FF00000000
(1682280403.967077) can0 301#0041
(1682280403.969736) can0 32C#80FF00010000
(1682280404.014929) can0 31A#C0FF00000000
(1682280404.131065) can0 368#80FF00010000
(1682280404.137197) can0 62C#00
(1682280404.137842) can0 0E3#02140000001B3004
(1682280404.138277) can0 067#02140000001B3004
(1682280404.138758) can0 0AC#02140000001B3004
(1682280404.139234) can0 01A#02140000001B3004
(1682280404.139662) can0 340#80FF00010000
(1682280404.140132) can0 068#02140000001B3004
(1682280404.141425) can0 05C#02140000001B3004
(1682280404.142848) can0 367#C0FF00000000
(1682280404.143435) can0 02C#02140000001B3004
(1682280404.145428) can0 040#02140000001B3004
(1682280404.146859) can0 37D#80FF00280000
(1682280404.147616) can0 07D#02140000001B3004
(1682280404.149429) can0 0C9#02140000001B3004
(1682280404.152468) can0 0A1#02140000001B3004
(1682280404.153561) can0 031#02140000001B3004
(1682280404.155431) can0 0D0#02140000001B3004
(1682280404.156422) can0 3A1#00
(1682280404.156701) can0 3D0#00
(1682280404.157589) can0 02F#02140000001B3004
(1682280404.159275) can0 1E3#00000000
(1682280404.161282) can0 167#00000000
(1682280404.163411) can0 1AC#00000000
(1682280404.163696) can0 32F#00
(1682280404.165294) can0 11A#00000000
(1682280404.167438) can0 168#00000000
(1682280404.169287) can0 15C#00000000
(1682280404.171292) can0 12C#00000000
(1682280404.173282) can0 140#00000000
(1682280404.175279) can0 17D#00000000
(1682280404.175643) can0 331#00
(1682280404.177457) can0 1C9#00000000
(1682280404.179422) can0 1A1#00000000
(1682280404.179704) can0 3C9#00
(1682280404.182310) can0 131#00000000
(1682280404.183285) can0 1D0#00000000
(1682280404.185510) can0 12F#00000000
(1682280404.187569) can0 2E3#00A32C2100691011
(1682280404.189564) can0 267#00A32C2100002011
(1682280404.191399) can0 2AC#00A32C2100603111
(1682280404.193407) can0 21A#00A32C2100604211
(1682280404.195670) can0 268#00A32C1E003D1011
(1682280404.197442) can0 25C#00A32C1E008F2011
(1682280404.199565) can0 22C#00A32C1E00033019
(1682280404.202453) can0 240#00A32C1E00044011
(1682280404.203398) can0 27D#00A32C1E00055019
(1682280404.205654) can0 2C9#00A32C0A00431000
(1682280404.207598) can0 2A1#00A32C0A00452000
(1682280404.209420) can0 231#00A32C0A00443100
(1682280404.212423) can0 2D0#00A32C0A00444200
(1682280404.213538) can0 22F#00A32C2700000E00
(1682280404.218352) can0 35C#80FF00010000
(1682280404.343019) can0 685#00
(1682280404.343494) can0 085#00140000001AE876
(1682280404.343821) can0 185#00000000
(1682280404.344291) can0 285#00A2852B00441201
(1682280404.480948) can0 37D#80FF00290000
(1682280404.504377) can0 385#00
(1682280404.844249) can0 02145C11#002B
(1682280404.844953) can0 01718511#002B0D8673
(1682280404.851057) can0 601#00
(1682280404.851862) can0 001#00180000001B2EAD
(1682280404.852575) can0 101#00000000
(1682280404.853260) can0 201#00B8012400000100
(1682280404.859944) can0 3AC#C0FF00000000
(1682280404.861284) can0 701#00092CD6FFFF0000
(1682280404.872398) can0 37D#80FF00280000
(1682280404.922966) can0 3E3#C0FF00000000
(1682280404.968089) can0 301#0041
(1682280404.970874) can0 32C#80FF00010000
(1682280405.015999) can0 31A#C0FF00000000
(1682280405.132899) can0 368#80FF00010000
(1682280405.137329) can0 62C#00
(1682280405.137807) can0 02C#02140000001B3004
(1682280405.138290) can0 040#02140000001B3004
(1682280405.138760) can0 0E3#02140000001B3004
(1682280405.139258) can0 067#02140000001B3004
(1682280405.139671) can0 340#80FF00010000
(1682280405.140142) can0 0AC#02140000001B3004
(1682280405.141435) can0 01A#02140000001B3004
(1682280405.143574) can0 068#02140000001B3004
(1682280405.144000) can0 367#C0FF00000000
(1682280405.145438) can0 05C#02140000001B3004
(1682280405.147683) can0 07D#02140000001B3004
(1682280405.149569) can0 0C9#02140000001B3004
(1682280405.152459) can0 0A1#02140000001B3004
(1682280405.153427) can0 031#02140000001B3004
(1682280405.155687) can0 0D0#02140000001B3004
(1682280405.157591) can0 02F#02140000001B3004
(1682280405.157865) can0 3A1#00
(1682280405.158113) can0 3D0#00
(1682280405.159415) can0 1E3#00000000
(1682280405.162327) can0 167#00000000
(1682280405.163421) can0 1AC#00000000
(1682280405.164667) can0 32F#00
(1682280405.165543) can0 11A#00000000
(1682280405.167445) can0 168#00000000
(1682280405.169419) can0 15C#00000000
(1682280405.172313) can0 12C#00000000
(1682280405.173290) can0 140#00000000
(1682280405.175296) can0 17D#00000000
(1682280405.176282) can0 331#00
(1682280405.177313) can0 1C9#00000000
(1682280405.179292) can0 1A1#00000000
(1682280405.180480) can0 3C9#00
(1682280405.182313) can0 131#00000000
(1682280405.183408) can0 1D0#00000000
(1682280405.185527) can0 12F#00000000
(1682280405.187574) can0 2E3#00A32C2100691011
(1682280405.189407) can0 267#00A32C2100002011
(1682280405.191403) can0 2AC#00A32C2100603111
(1682280405.193548) can0 21A#00A32C2100604211
(1682280405.195676) can0 268#00A32C1E003D1011
(1682280405.197576) can0 25C#00A32C1E008F2011
(1682280405.199563) can0 22C#00A32C1E00033019
(1682280405.202461) can0 240#00A32C1E00044011
(1682280405.203414) can0 27D#00A32C1E00055019
(1682280405.205651) can0 2C9#00A32C0A00431000
(1682280405.206466) can0 37D#80FF00250000
(1682280405.207414) can0 2A1#00A32C0A00452000
(1682280405.209393) can0 231#00A32C0A00443100
(1682280405.212421) can0 2D0#00A32C0A00444200
(1682280405.213385) can0 22F#00A32C2700000E00
(1682280405.219761) can0 35C#80FF00010000
(1682280405.223608) can0 00042F11#002B
(1682280405.224358) can0 00BD0111#002B0D8403
(1682280405.343019) can0 685#00
(1682280405.343485) can0 085#00140000001AE876
(1682280405.343773) can0 185#00000000
(1682280405.344292) can0 285#00A2852B00441201
(1682280405.505043) can0 385#00
(1682280405.540617) can0 37D#80FF00290000
(1682280405.851086) can0 601#00
(1682280405.851900) can0 001#00180000001B2EAD
(1682280405.852573) can0 101#00000000
(1682280405.853290) can0 201#00B8012400000100
(1682280405.854256) can0 02145C11#002B
(1682280405.854968) can0 01718511#002B0D87F2
(1682280405.860623) can0 3AC#C0FF00000000
(1682280405.861428) can0 701#00092CD7FFFF0000
(1682280405.923376) can0 3E3#C0FF00000000
(1682280405.969131) can0 301#0041
(1682280405.972927) can0 32C#80FF00010000
(1682280406.016562) can0 31A#C0FF00000000
(1682280406.133663) can0 368#80FF00010000
(1682280406.137328) can0 62C#00
(1682280406.137808) can0 040#02140000001B3004
(1682280406.138283) can0 0E3#02140000001B3004
(1682280406.138776) can0 067#02140000001B3004
(1682280406.139238) can0 0AC#02140000001B3004
(1682280406.139726) can0 01A#02140000001B3004
(1682280406.140131) can0 340#80FF00010000
(1682280406.141454) can0 068#02140000001B3004
(1682280406.143577) can0 05C#02140000001B3004
(1682280406.144808) can0 367#C0FF00000000
(1682280406.145722) can0 02C#02140000001B3004
(1682280406.146766) can0 37D#80FF00280000
(1682280406.147615) can0 07D#02140000001B3004
(1682280406.149564) can0 0C9#02140000001B3004
(1682280406.151438) can0 0A1#02140000001B3004
(1682280406.153575) can0 031#02140000001B3004
(1682280406.155695) can0 0D0#02140000001B3004
(1682280406.157596) can0 02F#02140000001B3004
(1682280406.158445) can0 3A1#00
(1682280406.158686) can0 3D0#00
(1682280406.159409) can0 1E3#00000000
(1682280406.161292) can0 167#00000000
(1682280406.163418) can0 1AC#00000000
(1682280406.165563) can0 11A#00000000
(1682280406.165809) can0 32F#00
(1682280406.167452) can0 168#00000000
(1682280406.169416) can0 15C#00000000
(1682280406.171296) can0 12C#00000000
(1682280406.173290) can0 140#00000000
(1682280406.175285) can0 17D#00000000
(1682280406.177316) can0 1C9#00000000
(1682280406.177601) can0 331#00
(1682280406.179426) can0 1A1#00000000
(1682280406.182326) can0 131#00000000
(1682280406.182750) can0 3C9#00
(1682280406.183411) can0 1D0#00000000
(1682280406.185524) can0 12F#00000000
(1682280406.187568) can0 2E3#00A32C2100691011
(1682280406.189566) can0 267#00A32C2100002011
(1682280406.191406) can0 2AC#00A32C2100603111
(1682280406.193409) can0 21A#00A32C2100604211
(1682280406.195675) can0 268#00A32C1E003D1011
(1682280406.197448) can0 25C#00A32C1E008F2011
(1682280406.199553) can0 22C#00A32C1E00033019
(1682280406.202459) can0 240#00A32C1E00044011
(1682280406.203434) can0 27D#00A32C1E00055019
(1682280406.205672) can0 2C9#00A32C0A00431000
(1682280406.207570) can0 2A1#00A32C0A00452000
(1682280406.209389) can0 231#00A32C0A00443100
(1682280406.212427) can0 2D0#00A32C0A00444200
(1682280406.213533) can0 22F#00A32C2700000E00
(1682280406.220639) can0 35C#80FF00010000
(1682280406.343016) can0 685#00
(1682280406.343483) can0 085#00140000001AE876
(1682280406.343821) can0 185#00000000
(1682280406.344296) can0 285#00A2852B00441201
(1682280406.480714) can0 37D#80FF00250000
(1682280406.506033) can0 385#00
