(1682280092.625551) can0 32C#80FF00010000
(1682280092.669456) can0 31A#C0FF00000000
(1682280092.753453) can0 02145C11#002B
(1682280092.754173) can0 01718511#002B0D80F5
(1682280092.788475) can0 368#80FF00010000
(1682280092.792534) can0 340#80FF00010000
(1682280092.797352) can0 367#C0FF00000000
(1682280092.810323) can0 3A1#00
(1682280092.810634) can0 3D0#00
(1682280092.816511) can0 37D#80FF00290000
(1682280092.817192) can0 32F#00
(1682280092.830457) can0 331#00
(1682280092.835385) can0 3C9#00
(1682280092.844208) can0 601#00
(1682280092.844822) can0 001#00180000001B2EAD
(1682280092.845490) can0 101#00000000
(1682280092.846209) can0 201#00B8012400000100
(1682280092.848289) can0 35C#80FF00010000
(1682280092.854449) can0 701#00092B9EFFFF0000
(1682280093.034249) can0 3E3#C0FF00000000
(1682280093.136828) can0 62C#00
(1682280093.137300) can0 0E3#02140000001B3004
(1682280093.137778) can0 067#02140000001B3004
(1682280093.138261) can0 0AC#02140000001B3004
(1682280093.138732) can0 01A#02140000001B3004
(1682280093.139221) can0 068#02140000001B3004
(1682280093.142104) can0 05C#02140000001B3004
(1682280093.143075) can0 02C#02140000001B3004
(1682280093.145079) can0 040#02140000001B3004
(1682280093.147240) can0 07D#02140000001B3004
(1682280093.149186) can0 0C9#02140000001B3004
(1682280093.151073) can0 0A1#02140000001B3004
(1682280093.153200) can0 031#02140000001B3004
(1682280093.155319) can0 0D0#02140000001B3004
(1682280093.156320) can0 37D#80FF00280000
(1682280093.157083) can0 02F#02140000001B3004
(1682280093.159062) can0 1E3#00000000
(1682280093.161966) can0 167#00000000
(1682280093.162905) can0 1AC#00000000
(1682280093.164922) can0 11A#00000000
(1682280093.166939) can0 168#00000000
(1682280093.169053) can0 15C#00000000
(1682280093.170922) can0 12C#00000000
(1682280093.172913) can0 140#00000000
(1682280093.174910) can0 17D#00000000
(1682280093.176946) can0 1C9#00000000
(1682280093.178924) can0 1A1#00000000
(1682280093.180914) can0 131#00000000
(1682280093.182907) can0 1D0#00000000
(1682280093.184911) can0 12F#00000000
(1682280093.187054) can0 2E3#00A32C2100691011
(1682280093.189046) can0 267#00A32C2100002011
(1682280093.192070) can0 2AC#00A32C2100603111
(1682280093.192333) can0 385#00
(1682280093.193177) can0 21A#00A32C2100604211
(1682280093.195069) can0 268#00A32C1E003D1011
(1682280093.197217) can0 25C#00A32C1E008F2011
(1682280093.199067) can0 22C#00A32C1E00033019
(1682280093.202076) can0 240#00A32C1E00044011
(1682280093.203186) can0 27D#00A32C1E00055019
(1682280093.205061) can0 2C9#00A32C0A00431000
(1682280093.207201) can0 2A1#00A32C0A00452000
(1682280093.209178) can0 231#00A32C0A00443100
(1682280093.211047) can0 2D0#00A32C0A00444200
(1682280093.213066) can0 22F#00A32C2700000E00
(1682280093.215579) can0 00042F11#002B
(1682280093.216345) can0 00BD0111#002B0D7BF5
(1682280093.316231) can0 301#0040
(1682280093.342204) can0 685#00
(1682280093.342687) can0 085#00140000001AE876
(1682280093.343005) can0 185#00000000
(1682280093.343492) can0 285#00A2852B00441201
(1682280093.490619) can0 37D#80FF00270000
(1682280093.515316) can0 3AC#C0FF00000000
(1682280093.626339) can0 32C#80FF00010000
(1682280093.670490) can0 31A#C0FF00000000
(1682280093.763458) can0 02145C11#002B
(1682280093.764195) can0 01718511#002B0D828D
(1682280093.789383) can0 368#80FF00010000
(1682280093.793420) can0 340#80FF00010000
(1682280093.798249) can0 367#C0FF00000000
(1682280093.812241) can0 3A1#00
(1682280093.812519) can0 3D0#00
(1682280093.818029) can0 32F#00
(1682280093.824125) can0 37D#80FF00290000
(1682280093.832360) can0 331#00
(1682280093.836241) can0 3C9#00
(1682280093.844261) can0 601#00
(1682280093.845049) can0 001#00180000001B2EAD
(1682280093.845703) can0 101#00000000
(1682280093.846439) can0 201#00B8012400000100
(1682280093.849183) can0 35C#80FF00010000
(1682280093.854492) can0 701#00092B9FFFFF0000
(1682280094.035265) can0 3E3#C0FF00000000
(1682280094.136831) can0 62C#00
(1682280094.137315) can0 05C#02140000001B3004
(1682280094.137792) can0 02C#02140000001B3004
(1682280094.138267) can0 040#02140000001B3004
(1682280094.138742) can0 0E3#02140000001B3004
(1682280094.139233) can0 067#02140000001B3004
(1682280094.141078) can0 0AC#02140000001B3004
(1682280094.143205) can0 01A#02140000001B3004
(1682280094.145312) can0 068#02140000001B3004
(1682280094.147324) can0 07D#02140000001B3004
(1682280094.149069) can0 0C9#02140000001B3004
(1682280094.152104) can0 0A1#02140000001B3004
(1682280094.153063) can0 031#02140000001B3004
(1682280094.155330) can0 0D0#02140000001B3004
(1682280094.157230) can0 02F#02140000001B3004
(1682280094.158260) can0 37D#80FF00270000
(1682280094.159069) can0 1E3#00000000
(1682280094.161967) can0 167#00000000
(1682280094.163044) can0 1AC#00000000
(1682280094.165168) can0 11A#00000000
(1682280094.167080) can0 168#00000000
(1682280094.169061) can0 15C#00000000
(1682280094.171944) can0 12C#00000000
(1682280094.173060) can0 140#00000000
(1682280094.175165) can0 17D#00000000
(1682280094.177085) can0 1C9#00000000
(1682280094.179066) can0 1A1#00000000
(1682280094.181957) can0 131#00000000
(1682280094.183062) can0 1D0#00000000
(1682280094.185164) can0 12F#00000000
(1682280094.187070) can0 2E3#00A32C2100691011
(1682280094.189066) can0 267#00A32C2100002011
(1682280094.192070) can0 2AC#00A32C2100603111
(1682280094.193044) can0 21A#00A32C2100604211
(1682280094.193653) can0 385#00
(1682280094.195309) can0 268#00A32C1E003D1011
(1682280094.197076) can0 25C#00A32C1E008F2011
(1682280094.199180) can0 22C#00A32C1E00033019
(1682280094.202088) can0 240#00A32C1E00044011
(1682280094.203068) can0 27D#00A32C1E00055019
(1682280094.205317) can0 2C9#00A32C0A00431000
(1682280094.207080) can0 2A1#00A32C0A00452000
(1682280094.209173) can0 231#00A32C0A00443100
(1682280094.211058) can0 2D0#00A32C0A00444200
(1682280094.213061) can0 22F#00A32C2700000E00
(1682280094.317258) can0 301#0040
(1682280094.342188) can0 685#00
(1682280094.342665) can0 085#00140000001AE876
(1682280094.342991) can0 185#00000000
(1682280094.343502) can0 285#00A2852B00441201
(1682280094.516431) can0 3AC#C0FF00000000
(1682280094.576354) can0 37D#80FF00280000
(1682280094.627171) can0 32C#80FF00010000
(1682280094.715616) can0 00042F11#002B
(1682280094.716381) can0 00BD0111#002B0D80DC
(1682280094.773484) can0 02145C11#002B
(1682280094.774200) can0 01718511#002B0D80BB
(1682280094.790649) can0 368#80FF00010000
(1682280094.794605) can0 340#80FF00010000
(1682280094.799392) can0 367#C0FF00000000
(1682280094.812992) can0 3D0#00
(1682280094.813445) can0 3A1#00
(1682280094.819168) can0 32F#00
(1682280094.832969) can0 331#00
(1682280094.837332) can0 3C9#00
(1682280094.844244) can0 601#00
(1682280094.845077) can0 001#00180000001B2EAD
(1682280094.845717) can0 101#00000000
(1682280094.846464) can0 201#00B8012400000100
(1682280094.850405) can0 35C#80FF00010000
(1682280094.854491) can0 701#00092BA0FFFF0000
(1682280094.910647) can0 37D#80FF00290000
(1682280095.036285) can0 3E3#C0FF00000000
(1682280095.136826) can0 62C#00
(1682280095.137300) can0 01A#02140000001B3004
(1682280095.137783) can0 068#02140000001B3004
(1682280095.138262) can0 05C#02140000001B3004
(1682280095.138750) can0 02C#02140000001B3004
(1682280095.139240) can0 040#02140000001B3004
(1682280095.142430) can0 0E3#02140000001B3004
(1682280095.143224) can0 067#02140000001B3004
(1682280095.145305) can0 0AC#02140000001B3004
(1682280095.147394) can0 07D#02140000001B3004
(1682280095.149194) can0 0C9#02140000001B3004
(1682280095.151062) can0 0A1#02140000001B3004
(1682280095.153205) can0 031#02140000001B3004
(1682280095.155310) can0 0D0#02140000001B3004
(1682280095.157096) can0 02F#02140000001B3004
(1682280095.159053) can0 1E3#00000000
(1682280095.161958) can0 167#00000000
(1682280095.162912) can0 1AC#00000000
(1682280095.164934) can0 11A#00000000
(1682280095.166950) can0 168#00000000
(1682280095.168916) can0 15C#00000000
(1682280095.171959) can0 12C#00000000
(1682280095.173053) can0 140#00000000
(1682280095.175184) can0 17D#00000000
(1682280095.176938) can0 1C9#00000000
(1682280095.179058) can0 1A1#00000000
(1682280095.181953) can0 131#00000000
(1682280095.183059) can0 1D0#00000000
(1682280095.185158) can0 12F#00000000
(1682280095.187202) can0 2E3#00A32C2100691011
(1682280095.189057) can0 267#00A32C2100002011
(1682280095.191054) can0 2AC#00A32C2100603111
(1682280095.193170) can0 21A#00A32C2100604211
(1682280095.194220) can0 385#00
(1682280095.195049) can0 268#00A32C1E003D1011
(1682280095.197212) can0 25C#00A32C1E008F2011
(1682280095.199199) can0 22C#00A32C1E00033019
(1682280095.202093) can0 240#00A32C1E00044011
(1682280095.203063) can0 27D#00A32C1E00055019
(1682280095.205309) can0 2C9#00A32C0A00431000
(1682280095.207077) can0 2A1#00A32C0A00452000
(1682280095.209187) can0 231#00A32C0A00443100
(1682280095.212082) can0 2D0#00A32C0A00444200
(1682280095.213042) can0 22F#00A32C2700000E00
(1682280095.244324) can0 37D#80FF00270000
(1682280095.318277) can0 301#0040
(1682280095.342219) can0 685#00
(1682280095.342707) can0 085#00140000001AE876
(1682280095.343031) can0 185#00000000
(1682280095.343501) can0 285#00A2852B00441201
(1682280095.517475) can0 3AC#C0FF00000000
(1682280095.578397) can0 37D#80FF00290000
(1682280095.628575) can0 32C#80FF00010000
(1682280095.673281) can0 31A#C0FF00000000
(1682280095.783502) can0 02145C11#002B
(1682280095.784233) can0 01718511#002B0D81EF
(1682280095.792440) can0 368#80FF00010000
(1682280095.795460) can0 340#80FF00010000
(1682280095.800290) can0 367#C0FF00000000
(1682280095.814181) can0 3A1#00
(1682280095.814458) can0 3D0#00
(1682280095.820093) can0 32F#00
(1682280095.834259) can0 331#00
(1682280095.838162) can0 3C9#00
(1682280095.844281) can0 601#00
(1682280095.845101) can0 001#00180000001B2EAD
(1682280095.845738) can0 101#00000000
(1682280095.846482) can0 201#00B8012400000100
(1682280095.852220) can0 35C#80FF00010000
(1682280095.854512) can0 701#00092BA1FFFF0000
(1682280096.037617) can0 3E3#C0FF00000000
(1682280096.136982) can0 62C#00
(1682280096.137453) can0 02C#02140000001B3004
(1682280096.137939) can0 040#02140000001B3004
(1682280096.138405) can0 0E3#02140000001B3004
(1682280096.138885) can0 067#02140000001B3004
(1682280096.139357) can0 0AC#02140000001B3004
(1682280096.142100) can0 01A#02140000001B3004
(1682280096.143200) can0 068#02140000001B3004
(1682280096.145064) can0 05C#02140000001B3004
(1682280096.147308) can0 07D#02140000001B3004
(1682280096.149204) can0 0C9#02140000001B3004
(1682280096.152090) can0 0A1#02140000001B3004
(1682280096.153059) can0 031#02140000001B3004
(1682280096.155324) can0 0D0#02140000001B3004
(1682280096.157223) can0 02F#02140000001B3004
(1682280096.158917) can0 1E3#00000000
(1682280096.160916) can0 167#00000000
(1682280096.163048) can0 1AC#00000000
(1682280096.165177) can0 11A#00000000
(1682280096.167082) can0 168#00000000
(1682280096.169069) can0 15C#00000000
(1682280096.171957) can0 12C#00000000
(1682280096.172369) can0 37D#80FF00280000
(1682280096.173058) can0 140#00000000
(1682280096.175162) can0 17D#00000000
(1682280096.177085) can0 1C9#00000000
(1682280096.179067) can0 1A1#00000000
(1682280096.181950) can0 131#00000000
(1682280096.183049) can0 1D0#00000000
(1682280096.185168) can0 12F#00000000
(1682280096.187204) can0 2E3#00A32C2100691011
(1682280096.189185) can0 267#00A32C2100002011
(1682280096.192073) can0 2AC#00A32C2100603111
(1682280096.193046) can0 21A#00A32C2100604211
(1682280096.195311) can0 268#00A32C1E003D1011
(1682280096.195550) can0 385#00
(1682280096.197074) can0 25C#00A32C1E008F2011
(1682280096.199184) can0 22C#00A32C1E00033019
(1682280096.202089) can0 240#00A32C1E00044011
(1682280096.203064) can0 27D#00A32C1E00055019
(1682280096.205295) can0 2C9#00A32C0A00431000
(1682280096.207080) can0 2A1#00A32C0A00452000
(1682280096.209048) can0 231#00A32C0A00443100
(1682280096.212080) can0 2D0#00A32C0A00444200
(1682280096.213181) can0 22F#00A32C2700000E00
(1682280096.215638) can0 00042F11#002B
(1682280096.216376) can0 00BD0111#002B0D802E
(1682280096.319298) can0 301#0040
(1682280096.342195) can0 685#00
(1682280096.342663) can0 085#00140000001AE876
(1682280096.343001) can0 185#00000000
(1682280096.343471) can0 285#00A2852B00441201
(1682280096.503687) can0 02140002#55
(1682280096.503952) can0 02140002#AA
(1682280096.504341) can0 02158502#5500
(1682280096.504675) can0 02158502#AA00
(1682280096.505035) can0 038D8502#5500
(1682280096.505375) can0 019D8502#5500
(1682280096.505732) can0 02B18502#5500
(1682280096.506093) can0 00698502#5500
(1682280096.506463) can0 01A18502#5500
(1682280096.506777) can0 01718502#5500
(1682280096.507139) can0 00B18502#5500
(1682280096.507493) can0 01018502#5500
(1682280096.507839) can0 01F58502#5500
(1682280096.508203) can0 03258502#5500
(1682280096.508544) can0 02858502#5500
(1682280096.508901) can0 00C58502#5500
(1682280096.509236) can0 03418502#5500
(1682280096.509601) can0 00BD8502#5500
(1682280096.509975) can0 038D8502#AA00
(1682280096.510252) can0 019D8502#AA09
(1682280096.510643) can0 02B18502#AA09
(1682280096.510997) can0 00698502#AA09
(1682280096.511329) can0 01A18502#AA09
(1682280096.511701) can0 01718502#AA09
(1682280096.512060) can0 00B18502#AA09
(1682280096.512392) can0 01018502#AA09
(1682280096.512751) can0 01F58502#AA09
(1682280096.513117) can0 03258502#AA09
(1682280096.513450) can0 02858502#AA09
(1682280096.513788) can0 00C58502#AA09
(1682280096.514161) can0 02145C42#0004
(1682280096.514468) can0 03418502#AA09
(1682280096.514846) can0 00BD8502#AA09
(1682280096.515271) can0 37D#80FF00290000
(1682280096.515756) can0 01718542#0004F60B2AE1
(1682280096.516305) can0 02145C43#0004A710F255
(1682280096.516764) can0 01718543#0004
(1682280096.517446) can0 35C#80FF00010000
(1682280096.518465) can0 3AC#C0FF00000000
(1682280096.523519) can0 02165C01#
(1682280096.568284) can0 35C#81FF00170000
(1682280096.619501) can0 35C#81FF003F0000
(1682280096.629516) can0 32C#80FF00010000
(1682280096.670462) can0 35C#81FF005E0000
(1682280096.674203) can0 31A#C0FF00000000
(1682280096.722264) can0 35C#81FF00740000
(1682280096.773528) can0 35C#81FF00860000
(1682280096.793410) can0 368#80FF00010000
(1682280096.793736) can0 02145C11#002B
(1682280096.794497) can0 01718511#002B0D819C
(1682280096.796215) can0 340#80FF00010000
(1682280096.802577) can0 367#C0FF00000000
(1682280096.815077) can0 3A1#00
(1682280096.815327) can0 3D0#00
(1682280096.822358) can0 32F#00
(1682280096.824449) can0 35C#81FF00920000
(1682280096.835173) can0 331#00
(1682280096.838949) can0 3C9#00
(1682280096.844293) can0 601#00
(1682280096.845119) can0 001#00180000001B2EAD
(1682280096.845760) can0 101#00000000
(1682280096.846561) can0 201#00B8012400000100
(1682280096.854561) can0 701#00092BA2FFFF0000
(1682280096.875620) can0 35C#81FF009A0000
(1682280096.926346) can0 35C#81FF00A00000
(1682280096.977168) can0 35C#81FF00A40000
(1682280097.023565) can0 02145C44#0004
(1682280097.028456) can0 35C#81FF00A80000
(1682280097.038285) can0 3E3#C0FF00000000
(1682280097.079309) can0 35C#81FF00AA0000
(1682280097.130671) can0 35C#81FF00AC0000
(1682280097.136958) can0 62C#00
(1682280097.137444) can0 0AC#02140000001B3004
(1682280097.137921) can0 01A#02140000001B3004
(1682280097.138400) can0 068#02140000001B3004
(1682280097.138888) can0 05C#06140000001B3004
(1682280097.139364) can0 02C#02140000001B3004
(1682280097.142115) can0 040#02140000001B3004
(1682280097.143401) can0 0E3#02140000001B3004
(1682280097.145070) can0 067#02140000001B3004
(1682280097.147449) can0 07D#02140000001B3004
(1682280097.149061) can0 0C9#02140000001B3004
(1682280097.152107) can0 0A1#02140000001B3004
(1682280097.153189) can0 031#02140000001B3004
(1682280097.155326) can0 0D0#02140000001B3004
(1682280097.157225) can0 02F#02140000001B3004
(1682280097.158915) can0 1E3#00000000
(1682280097.161973) can0 167#00000000
(1682280097.163045) can0 1AC#00000000
(1682280097.164929) can0 11A#00000000
(1682280097.166949) can0 168#00000000
(1682280097.168918) can0 15C#00000000
(1682280097.171970) can0 12C#00000000
(1682280097.172914) can0 140#00000000
(1682280097.174911) can0 17D#00000000
(1682280097.177090) can0 1C9#00000000
(1682280097.179068) can0 1A1#00000000
(1682280097.181963) can0 131#00000000
(1682280097.182563) can0 35C#81FF00AD0000
(1682280097.183076) can0 1D0#00000000
(1682280097.185157) can0 12F#00000000
(1682280097.187193) can0 2E3#00A32C2100691011
(1682280097.189189) can0 267#00A32C2100002011
(1682280097.191054) can0 2AC#00A32C2100603111
(1682280097.193173) can0 21A#00A32C2100604211
(1682280097.195319) can0 268#00A32C1E003D1011
(1682280097.196246) can0 385#00
(1682280097.197084) can0 25C#00A32C1E008F2011
(1682280097.199187) can0 22C#00A32C1E00033019
(1682280097.202107) can0 240#00A32C1E00044011
(1682280097.203069) can0 27D#00A32C1E00055019
(1682280097.205312) can0 2C9#00A32C0A00431000
(1682280097.207214) can0 2A1#00A32C0A00452000
(1682280097.209054) can0 231#00A32C0A00443100
(1682280097.211064) can0 2D0#00A32C0A00444200
(1682280097.213186) can0 22F#00A32C2700000E00
(1682280097.216519) can0 37D#80FF00280000
(1682280097.233564) can0 35C#81FF00AE0000
(1682280097.284324) can0 35C#81FF00AF0000
(1682280097.320318) can0 301#0040
(1682280097.342188) can0 685#00
(1682280097.342669) can0 085#00140000001AE876
(1682280097.342993) can0 185#00000000
(1682280097.343465) can0 285#00A2852B00441201
(1682280097.519360) can0 3AC#C0FF00000000
(1682280097.533570) can0 02145C45#0004
(1682280097.534134) can0 01718545#000400
(1682280097.550704) can0 37D#80FF00290000
(1682280097.630326) can0 32C#80FF00010000
(1682280097.653411) can0 35C#81FF00B00000
(1682280097.675590) can0 31A#C0FF00000000
(1682280097.715684) can0 00042F11#002B
(1682280097.716415) can0 00BD0111#002B0D80CB
(1682280097.794241) can0 368#80FF00010000
(1682280097.797239) can0 340#80FF00010000
(1682280097.802993) can0 367#C0FF00000000
(1682280097.803490) can0 02145C11#002B
(1682280097.804241) can0 01718511#002B0D804F
(1682280097.815901) can0 3A1#00
(1682280097.816185) can0 3D0#00
(1682280097.823246) can0 32F#00
(1682280097.835985) can0 331#00
(1682280097.840417) can0 3C9#00
(1682280097.844330) can0 601#00
(1682280097.844933) can0 001#00180000001B2EAD
(1682280097.845634) can0 101#00000000
(1682280097.846328) can0 201#00B8012400000100
(1682280097.854602) can0 701#00092BA3FFFF0000
(1682280098.039428) can0 3E3#C0FF00000000
(1682280098.053591) can0 02145C42#0004
(1682280098.054229) can0 01718542#0004F146653E
(1682280098.054794) can0 02145C43#000450E7C9AC
(1682280098.055255) can0 01718543#0004
(1682280098.055658) can0 35C#81FF00B00000
(1682280098.063511) can0 02165C00#
(1682280098.106213) can0 35C#80FF009E0000
(1682280098.136832) can0 62C#00
(1682280098.137322) can0 05C#06140000001B3004
(1682280098.137812) can0 02C#02140000001B3004
(1682280098.138284) can0 040#02140000001B3004
(1682280098.138751) can0 0E3#02140000001B3004
(1682280098.139240) can0 067#02140000001B3004
(1682280098.142111) can0 0AC#02140000001B3004
(1682280098.143076) can0 01A#02140000001B3004
(1682280098.145078) can0 068#02140000001B3004
(1682280098.147337) can0 07D#02140000001B3004
(1682280098.149196) can0 0C9#02140000001B3004
(1682280098.152095) can0 0A1#02140000001B3004
(1682280098.153169) can0 031#02140000001B3004
(1682280098.155053) can0 0D0#02140000001B3004
(1682280098.157211) can0 02F#02140000001B3004
(1682280098.157626) can0 35C#80FF00750000
(1682280098.159049) can0 1E3#00000000
(1682280098.161944) can0 167#00000000
(1682280098.162890) can0 1AC#00000000
(1682280098.164900) can0 11A#00000000
(1682280098.166919) can0 168#00000000
(1682280098.169049) can0 15C#00000000
(1682280098.171931) can0 12C#00000000
(1682280098.173040) can0 140#00000000
(1682280098.175139) can0 17D#00000000
(1682280098.177053) can0 1C9#00000000
(1682280098.178894) can0 1A1#00000000
(1682280098.181958) can0 131#00000000
(1682280098.183034) can0 1D0#00000000
(1682280098.185145) can0 12F#00000000
(1682280098.187182) can0 2E3#00A32C2100691011
(1682280098.189022) can0 267#00A32C2100002011
(1682280098.191018) can0 2AC#00A32C2100603111
(1682280098.193020) can0 21A#00A32C2100604211
(1682280098.195284) can0 268#00A32C1E003D1011
(1682280098.197205) can0 25C#00A32C1E008F2011
(1682280098.197460) can0 385#00
(1682280098.199035) can0 22C#00A32C1E00033019
(1682280098.201034) can0 240#00A32C1E00044011
(1682280098.202465) can0 37D#80FF00280000
(1682280098.203174) can0 27D#00A32C1E00055019
(1682280098.205282) can0 2C9#00A32C0A00431000
(1682280098.207051) can0 2A1#00A32C0A00452000
(1682280098.208194) can0 35C#80FF00520000
(1682280098.209018) can0 231#00A32C0A00443100
(1682280098.211035) can0 2D0#00A32C0A00444200
(1682280098.213173) can0 22F#00A32C2700000E00
(1682280098.259186) can0 35C#80FF003C0000
(1682280098.310458) can0 35C#80FF002C0000
(1682280098.321357) can0 301#0040
(1682280098.342201) can0 685#00
(1682280098.342684) can0 085#00140000001AE876
(1682280098.343005) can0 185#00000000
(1682280098.343487) can0 285#00A2852B00441201
(1682280098.362362) can0 35C#80FF00200000
(1682280098.413550) can0 35C#80FF00170000
(1682280098.464322) can0 35C#80FF00110000
(1682280098.515650) can0 35C#80FF000C0000
(1682280098.520588) can0 3AC#C0FF00000000
(1682280098.536245) can0 37D#80FF00290000
(1682280098.563571) can0 02145C44#0004
(1682280098.566497) can0 35C#80FF00090000
(1682280098.617284) can0 35C#80FF00070000
(1682280098.632241) can0 32C#80FF00010000
(1682280098.668569) can0 35C#80FF00050000
(1682280098.676313) can0 31A#C0FF00000000
(1682280098.719384) can0 35C#80FF00040000
(1682280098.770273) can0 35C#80FF00030000
(1682280098.795590) can0 368#80FF00010000
(1682280098.798469) can0 340#80FF00010000
(1682280098.804333) can0 367#C0FF00000000
(1682280098.813470) can0 02145C11#002B
(1682280098.814183) can0 01718511#002B0D8527
(1682280098.817104) can0 3A1#00
(1682280098.817378) can0 3D0#00
(1682280098.822045) can0 35C#80FF00020000
(1682280098.824001) can0 32F#00
(1682280098.837217) can0 331#00
(1682280098.842169) can0 3C9#00
(1682280098.844335) can0 601#00
(1682280098.844956) can0 001#00180000001B2EAD
(1682280098.845626) can0 101#00000000
(1682280098.846348) can0 201#00B8012400000100
(1682280098.854585) can0 701#00092BA4FFFF0000
(1682280098.883251) can0 35C#80FF00010000
(1682280099.040437) can0 3E3#C0FF00000000
(1682280099.073579) can0 02145C45#0004
(1682280099.074153) can0 01718545#000400
(1682280099.136976) can0 62C#00
(1682280099.137469) can0 0E3#02140000001B3004
(1682280099.137952) can0 067#02140000001B3004
(1682280099.138442) can0 0AC#02140000001B3004
(1682280099.138903) can0 01A#02140000001B3004
(1682280099.139380) can0 068#02140000001B3004
(1682280099.142108) can0 05C#02140000001B3004
(1682280099.143080) can0 02C#02140000001B3004
(1682280099.145335) can0 040#02140000001B3004
(1682280099.147244) can0 07D#02140000001B3004
(1682280099.149074) can0 0C9#02140000001B3004
(1682280099.151102) can0 0A1#02140000001B3004
(1682280099.153208) can0 031#02140000001B3004
(1682280099.155313) can0 0D0#02140000001B3004
(1682280099.156407) can0 37D#80FF00280000
(1682280099.157109) can0 02F#02140000001B3004
(1682280099.159069) can0 1E3#00000000
(1682280099.161967) can0 167#00000000
(1682280099.162916) can0 1AC#00000000
(1682280099.164931) can0 11A#00000000
(1682280099.166952) can0 168#00000000
(1682280099.168928) can0 15C#00000000
(1682280099.170928) can0 12C#00000000
(1682280099.172919) can0 140#00000000
(1682280099.174916) can0 17D#00000000
(1682280099.176952) can0 1C9#00000000
(1682280099.178920) can0 1A1#00000000
(1682280099.180919) can0 131#00000000
(1682280099.182912) can0 1D0#00000000
(1682280099.184911) can0 12F#00000000
(1682280099.187080) can0 2E3#00A32C2100691011
(1682280099.189184) can0 267#00A32C2100002011
(1682280099.192085) can0 2AC#00A32C2100603111
(1682280099.193053) can0 21A#00A32C2100604211
(1682280099.195319) can0 268#00A32C1E003D1011
(1682280099.197084) can0 25C#00A32C1E008F2011
(1682280099.198248) can0 385#00
(1682280099.199079) can0 22C#00A32C1E00033019
(1682280099.202104) can0 240#00A32C1E00044011
(1682280099.203207) can0 27D#00A32C1E00055019
(1682280099.205070) can0 2C9#00A32C0A00431000
(1682280099.207220) can0 2A1#00A32C0A00452000
(1682280099.209066) can0 231#00A32C0A00443100
(1682280099.211068) can0 2D0#00A32C0A00444200
(1682280099.213188) can0 22F#00A32C2700000E00
(1682280099.215709) can0 00042F11#002B
(1682280099.216434) can0 00BD0111#002B0D7E4B
(1682280099.322363) can0 301#0040
(1682280099.342203) can0 685#00
(1682280099.342682) can0 085#00140000001AE876
(1682280099.343011) can0 185#00000000
(1682280099.343484) can0 285#00A2852B00441201
(1682280099.490416) can0 37D#80FF00260000
(1682280099.521010) can0 3AC#C0FF00000000
(1682280099.633253) can0 32C#80FF00010000
(1682280099.677356) can0 31A#C0FF00000000
(1682280099.796012) can0 368#80FF00010000
(1682280099.799487) can0 340#80FF00010000
(1682280099.805481) can0 367#C0FF00000000
(1682280099.818306) can0 3A1#00
(1682280099.818608) can0 3D0#00
(1682280099.823482) can0 02145C11#002B
(1682280099.824199) can0 01718511#002B0D8004
(1682280099.824624) can0 37D#80FF00290000
(1682280099.825154) can0 32F#00
(1682280099.838282) can0 331#00
(1682280099.843226) can0 3C9#00
(1682280099.844366) can0 601#00
(1682280099.845179) can0 001#00180000001B2EAD
(1682280099.845846) can0 101#00000000
(1682280099.846605) can0 201#00B8012400000100
(1682280099.854604) can0 701#00092BA5FFFF0000
(1682280099.884389) can0 35C#80FF00010000
(1682280100.042317) can0 3E3#C0FF00000000
(1682280100.136837) can0 62C#00
(1682280100.137438) can0 0E3#02140000001B3004
(1682280100.137915) can0 067#02140000001B3004
(1682280100.138433) can0 0AC#02140000001B3004
(1682280100.138862) can0 01A#02140000001B3004
(1682280100.139348) can0 068#02140000001B3004
(1682280100.142106) can0 05C#02140000001B3004
(1682280100.143078) can0 02C#02140000001B3004
(1682280100.145074) can0 040#02140000001B3004
(1682280100.147255) can0 07D#02140000001B3004
(1682280100.149206) can0 0C9#02140000001B3004
(1682280100.151075) can0 0A1#02140000001B3004
(1682280100.153210) can0 031#02140000001B3004
(1682280100.155326) can0 0D0#02140000001B3004
(1682280100.157125) can0 02F#02140000001B3004
(1682280100.158215) can0 37D#80FF00280000
(1682280100.159063) can0 1E3#00000000
(1682280100.161970) can0 167#00000000
(1682280100.162920) can0 1AC#00000000
(1682280100.164940) can0 11A#00000000
(1682280100.166958) can0 168#00000000
(1682280100.168932) can0 15C#00000000
(1682280100.170934) can0 12C#00000000
(1682280100.172941) can0 140#00000000
(1682280100.174942) can0 17D#00000000
(1682280100.176972) can0 1C9#00000000
(1682280100.178941) can0 1A1#00000000
(1682280100.180922) can0 131#00000000
(1682280100.182920) can0 1D0#00000000
(1682280100.184928) can0 12F#00000000
(1682280100.187074) can0 2E3#00A32C2100691011
(1682280100.189193) can0 267#00A32C2100002011
(1682280100.192078) can0 2AC#00A32C2100603111
(1682280100.193188) can0 21A#00A32C2100604211
(1682280100.195078) can0 268#00A32C1E003D1011
(1682280100.197231) can0 25C#00A32C1E008F2011
(1682280100.199070) can0 22C#00A32C1E00033019
(1682280100.199311) can0 385#00
(1682280100.201072) can0 240#00A32C1E00044011
(1682280100.203199) can0 27D#00A32C1E00055019
(1682280100.205060) can0 2C9#00A32C0A00431000
(1682280100.207218) can0 2A1#00A32C0A00452000
(1682280100.209201) can0 231#00A32C0A00443100
(1682280100.211056) can0 2D0#00A32C0A00444200
(1682280100.213193) can0 22F#00A32C2700000E00
(1682280100.323386) can0 301#0040
(1682280100.342199) can0 685#00
(1682280100.342682) can0 085#00140000001AE876
(1682280100.343004) can0 185#00000000
(1682280100.343476) can0 285#00A2852B00441201
(1682280100.492236) can0 37D#80FF00240000
(1682280100.522437) can0 3AC#C0FF00000000
(1682280100.634502) can0 32C#80FF00010000
(1682280100.678591) can0 31A#C0FF00000000
(1682280100.715735) can0 00042F11#002B
(1682280100.716474) can0 00BD0111#002B0D8036
(1682280100.797627) can0 368#80FF00010000
(1682280100.800648) can0 340#80FF00010000
(1682280100.806460) can0 367#C0FF00000000
(1682280100.819355) can0 3A1#00
(1682280100.819600) can0 3D0#00
(1682280100.826260) can0 37D#80FF00290000
(1682280100.826580) can0 32F#00
(1682280100.833449) can0 02145C11#002B
(1682280100.834169) can0 01718511#002B0D8169
(1682280100.839306) can0 331#00
(1682280100.844255) can0 3C9#00
(1682280100.844539) can0 601#00
(1682280100.845202) can0 001#00180000001B2EAD
(1682280100.845895) can0 101#00000000
(1682280100.846595) can0 201#00B8012400000100
(1682280100.854648) can0 701#00092BA6FFFF0000
(1682280100.885509) can0 35C#80FF00010000
(1682280101.043257) can0 3E3#C0FF00000000
(1682280101.136990) can0 62C#00
(1682280101.137466) can0 05C#02140000001B3004
(1682280101.137947) can0 02C#02140000001B3004
(1682280101.138445) can0 040#02140000001B3004
(1682280101.138907) can0 0E3#02140000001B3004
(1682280101.139389) can0 067#02140000001B3004
(1682280101.142117) can0 0AC#02140000001B3004
(1682280101.143212) can0 01A#02140000001B3004
(1682280101.145093) can0 068#02140000001B3004
(1682280101.147338) can0 07D#02140000001B3004
(1682280101.149075) can0 0C9#02140000001B3004
(1682280101.152129) can0 0A1#02140000001B3004
(1682280101.153083) can0 031#02140000001B3004
(1682280101.155109) can0 0D0#02140000001B3004
(1682280101.157258) can0 02F#02140000001B3004
(1682280101.159076) can0 1E3#00000000
(1682280101.161974) can0 167#00000000
(1682280101.163080) can0 1AC#00000000
(1682280101.164936) can0 11A#00000000
(1682280101.166973) can0 168#00000000
(1682280101.168939) can0 15C#00000000
(1682280101.170935) can0 12C#00000000
(1682280101.172931) can0 140#00000000
(1682280101.174937) can0 17D#00000000
(1682280101.177087) can0 1C9#00000000
(1682280101.179060) can0 1A1#00000000
(1682280101.180944) can0 131#00000000
(1682280101.182944) can0 1D0#00000000
(1682280101.185169) can0 12F#00000000
(1682280101.187208) can0 2E3#00A32C2100691011
(1682280101.189059) can0 267#00A32C2100002011
(1682280101.191053) can0 2AC#00A32C2100603111
(1682280101.192308) can0 37D#80FF00280000
(1682280101.193059) can0 21A#00A32C2100604211
(1682280101.195324) can0 268#00A32C1E003D1011
(1682280101.197223) can0 25C#00A32C1E008F2011
(1682280101.199216) can0 22C#00A32C1E00033019
(1682280101.200230) can0 385#00
(1682280101.201074) can0 240#00A32C1E00044011
(1682280101.203206) can0 27D#00A32C1E00055019
(1682280101.205069) can0 2C9#00A32C0A00431000
(1682280101.207225) can0 2A1#00A32C0A00452000
(1682280101.209199) can0 231#00A32C0A00443100
(1682280101.211060) can0 2D0#00A32C0A00444200
(1682280101.213195) can0 22F#00A32C2700000E00
(1682280101.324413) can0 301#0040
(1682280101.342200) can0 685#00
(1682280101.342709) can0 085#00140000001AE876
(1682280101.342962) can0 185#00000000
(1682280101.343477) can0 285#00A2852B00441201
