(1682280058.413335) can0 02145C11#002B
(1682280058.414093) can0 01718511#002B0D7FF3
(1682280058.444209) can0 368#80FF00010000
(1682280058.477360) can0 3AC#C0FF00000000
(1682280058.526175) can0 37D#80FF00290000
(1682280058.587439) can0 32C#80FF00010000
(1682280058.632000) can0 31A#C0FF00000000
(1682280058.714814) can0 00042F11#002B
(1682280058.715536) can0 00BD0111#002B0D84E4
(1682280058.754129) can0 340#80FF00010000
(1682280058.760619) can0 367#C0FF00000000
(1682280058.772973) can0 3A1#00
(1682280058.773248) can0 3D0#00
(1682280058.779258) can0 32F#00
(1682280058.793053) can0 331#00
(1682280058.798028) can0 3C9#00
(1682280058.810349) can0 35C#80FF00010000
(1682280058.843453) can0 601#00
(1682280058.844272) can0 001#00180000001B2EAD
(1682280058.844925) can0 101#00000000
(1682280058.845662) can0 201#00B8012400000100
(1682280058.853684) can0 701#00092B7CFFFF0000
(1682280058.996379) can0 3E3#C0FF00000000
(1682280059.136924) can0 62C#00
(1682280059.137398) can0 0E3#02140000001B3004
(1682280059.137881) can0 067#02140000001B3004
(1682280059.138388) can0 0AC#02140000001B3004
(1682280059.138830) can0 01A#02140000001B3004
(1682280059.139322) can0 068#02140000001B3004
(1682280059.141025) can0 05C#02140000001B3004
(1682280059.143163) can0 02C#02140000001B3004
(1682280059.145050) can0 040#02140000001B3004
(1682280059.146395) can0 37D#80FF00280000
(1682280059.147198) can0 07D#02140000001B3004
(1682280059.149154) can0 0C9#02140000001B3004
(1682280059.151030) can0 0A1#02140000001B3004
(1682280059.153162) can0 031#02140000001B3004
(1682280059.155287) can0 0D0#02140000001B3004
(1682280059.157062) can0 02F#02140000001B3004
(1682280059.158138) can0 385#00
(1682280059.159021) can0 1E3#00000000
(1682280059.161922) can0 167#00000000
(1682280059.162878) can0 1AC#00000000
(1682280059.164886) can0 11A#00000000
(1682280059.166905) can0 168#00000000
(1682280059.168879) can0 15C#00000000
(1682280059.171942) can0 12C#00000000
(1682280059.173023) can0 140#00000000
(1682280059.175136) can0 17D#00000000
(1682280059.176882) can0 1C9#00000000
(1682280059.178997) can0 1A1#00000000
(1682280059.181890) can0 131#00000000
(1682280059.182982) can0 1D0#00000000
(1682280059.185104) can0 12F#00000000
(1682280059.187147) can0 2E3#00A32C2100691011
(1682280059.188981) can0 267#00A32C2100002011
(1682280059.190987) can0 2AC#00A32C2100603111
(1682280059.192984) can0 21A#00A32C2100604211
(1682280059.195248) can0 268#00A32C1E003D1011
(1682280059.197158) can0 25C#00A32C1E008F2011
(1682280059.199134) can0 22C#00A32C1E00033019
(1682280059.202033) can0 240#00A32C1E00044011
(1682280059.202997) can0 27D#00A32C1E00055019
(1682280059.205244) can0 2C9#00A32C0A00431000
(1682280059.207019) can0 2A1#00A32C0A00452000
(1682280059.209113) can0 231#00A32C0A00443100
(1682280059.212031) can0 2D0#00A32C0A00444200
(1682280059.213128) can0 22F#00A32C2700000E00
(1682280059.281473) can0 301#0040
(1682280059.342085) can0 685#00
(1682280059.342570) can0 085#00140000001AE876
(1682280059.342898) can0 185#00000000
(1682280059.343372) can0 285#00A2852B00441201
(1682280059.423328) can0 02145C11#002B
(1682280059.424042) can0 01718511#002B0D83C0
(1682280059.445493) can0 368#80FF00010000
(1682280059.478567) can0 3AC#C0FF00000000
(1682280059.526342) can0 37D#80FF00290000
(1682280059.588196) can0 32C#80FF00010000
(1682280059.633354) can0 31A#C0FF00000000
(1682280059.755646) can0 340#80FF00010000
(1682280059.760958) can0 367#C0FF00000000
(1682280059.773907) can0 3A1#00
(1682280059.774193) can0 3D0#00
(1682280059.780296) can0 32F#00
(1682280059.793988) can0 331#00
(1682280059.798974) can0 3C9#00
(1682280059.812306) can0 35C#80FF00010000
(1682280059.843482) can0 601#00
(1682280059.844106) can0 001#00180000001B2EAD
(1682280059.844767) can0 101#00000000
(1682280059.845487) can0 201#00B8012400000100
(1682280059.853707) can0 701#00092B7DFFFF0000
(1682280059.997360) can0 3E3#C0FF00000000
(1682280060.136813) can0 62C#00
(1682280060.137267) can0 068#02140000001B3004
(1682280060.137750) can0 05C#02140000001B3004
(1682280060.138228) can0 02C#02140000001B3004
(1682280060.138726) can0 040#02140000001B3004
(1682280060.139381) can0 0E3#02140000001B3004
(1682280060.141031) can0 067#02140000001B3004
(1682280060.143169) can0 0AC#02140000001B3004
(1682280060.145274) can0 01A#02140000001B3004
(1682280060.146274) can0 37D#80FF00280000
(1682280060.147313) can0 07D#02140000001B3004
(1682280060.149021) can0 0C9#02140000001B3004
(1682280060.152072) can0 0A1#02140000001B3004
(1682280060.153033) can0 031#02140000001B3004
(1682280060.155034) can0 0D0#02140000001B3004
(1682280060.157063) can0 02F#02140000001B3004
(1682280060.159012) can0 1E3#00000000
(1682280060.159290) can0 385#00
(1682280060.161932) can0 167#00000000
(1682280060.163019) can0 1AC#00000000
(1682280060.164879) can0 11A#00000000
(1682280060.166910) can0 168#00000000
(1682280060.168882) can0 15C#00000000
(1682280060.170879) can0 12C#00000000
(1682280060.172880) can0 140#00000000
(1682280060.174919) can0 17D#00000000
(1682280060.177011) can0 1C9#00000000
(1682280060.178983) can0 1A1#00000000
(1682280060.180861) can0 131#00000000
(1682280060.182883) can0 1D0#00000000
(1682280060.184847) can0 12F#00000000
(1682280060.187003) can0 2E3#00A32C2100691011
(1682280060.189125) can0 267#00A32C2100002011
(1682280060.192019) can0 2AC#00A32C2100603111
(1682280060.192980) can0 21A#00A32C2100604211
(1682280060.195237) can0 268#00A32C1E003D1011
(1682280060.197017) can0 25C#00A32C1E008F2011
(1682280060.199124) can0 22C#00A32C1E00033019
(1682280060.202034) can0 240#00A32C1E00044011
(1682280060.203136) can0 27D#00A32C1E00055019
(1682280060.204994) can0 2C9#00A32C0A00431000
(1682280060.207157) can0 2A1#00A32C0A00452000
(1682280060.208984) can0 231#00A32C0A00443100
(1682280060.210995) can0 2D0#00A32C0A00444200
(1682280060.213120) can0 22F#00A32C2700000E00
(1682280060.214859) can0 00042F11#002B
(1682280060.215572) can0 00BD0111#002B0D7F44
(1682280060.282493) can0 301#0040
(1682280060.342076) can0 685#00
(1682280060.342581) can0 085#00140000001AE876
(1682280060.342886) can0 185#00000000
(1682280060.343357) can0 285#00A2852B00441201
(1682280060.433335) can0 02145C11#002B
(1682280060.434049) can0 01718511#002B0D8169
(1682280060.446203) can0 368#80FF00010000
(1682280060.479255) can0 3AC#C0FF00000000
(1682280060.480215) can0 37D#80FF00250000
(1682280060.589325) can0 32C#80FF00010000
(1682280060.634397) can0 31A#C0FF00000000
(1682280060.755987) can0 340#80FF00010000
(1682280060.762425) can0 367#C0FF00000000
(1682280060.775398) can0 3A1#00
(1682280060.775679) can0 3D0#00
(1682280060.782204) can0 32F#00
(1682280060.795459) can0 331#00
(1682280060.800423) can0 3C9#00
(1682280060.813165) can0 35C#80FF00010000
(1682280060.814422) can0 37D#80FF00280000
(1682280060.843501) can0 601#00
(1682280060.844313) can0 001#00180000001B2EAD
(1682280060.844944) can0 101#00000000
(1682280060.845694) can0 201#00B8012400000100
(1682280060.853740) can0 701#00092B7EFFFF0000
(1682280060.998142) can0 3E3#C0FF00000000
(1682280061.136807) can0 62C#00
(1682280061.137267) can0 0E3#02140000001B3004
(1682280061.137744) can0 067#02140000001B3004
(1682280061.138224) can0 0AC#02140000001B3004
(1682280061.138689) can0 01A#02140000001B3004
(1682280061.139199) can0 068#02140000001B3004
(1682280061.141037) can0 05C#02140000001B3004
(1682280061.143193) can0 02C#02140000001B3004
(1682280061.145285) can0 040#02140000001B3004
(1682280061.147073) can0 07D#02140000001B3004
(1682280061.149172) can0 0C9#02140000001B3004
(1682280061.152063) can0 0A1#02140000001B3004
(1682280061.153029) can0 031#02140000001B3004
(1682280061.155290) can0 0D0#02140000001B3004
(1682280061.157204) can0 02F#02140000001B3004
(1682280061.158945) can0 1E3#00000000
(1682280061.160124) can0 385#00
(1682280061.160892) can0 167#00000000
(1682280061.163018) can0 1AC#00000000
(1682280061.165162) can0 11A#00000000
(1682280061.167090) can0 168#00000000
(1682280061.168879) can0 15C#00000000
(1682280061.171943) can0 12C#00000000
(1682280061.173026) can0 140#00000000
(1682280061.175146) can0 17D#00000000
(1682280061.176914) can0 1C9#00000000
(1682280061.178858) can0 1A1#00000000
(1682280061.180856) can0 131#00000000
(1682280061.183005) can0 1D0#00000000
(1682280061.184854) can0 12F#00000000
(1682280061.187010) can0 2E3#00A32C2100691011
(1682280061.189131) can0 267#00A32C2100002011
(1682280061.192031) can0 2AC#00A32C2100603111
(1682280061.192990) can0 21A#00A32C2100604211
(1682280061.195253) can0 268#00A32C1E003D1011
(1682280061.197040) can0 25C#00A32C1E008F2011
(1682280061.199147) can0 22C#00A32C1E00033019
(1682280061.200999) can0 240#00A32C1E00044011
(1682280061.202240) can0 37D#80FF00270000
(1682280061.203003) can0 27D#00A32C1E00055019
(1682280061.205251) can0 2C9#00A32C0A00431000
(1682280061.207027) can0 2A1#00A32C0A00452000
(1682280061.209129) can0 231#00A32C0A00443100
(1682280061.212036) can0 2D0#00A32C0A00444200
(1682280061.212992) can0 22F#00A32C2700000E00
(1682280061.283532) can0 301#0040
(1682280061.342100) can0 685#00
(1682280061.342626) can0 085#00140000001AE876
(1682280061.342872) can0 185#00000000
(1682280061.343378) can0 285#00A2852B00441201
(1682280061.443369) can0 02145C11#002B
(1682280061.444108) can0 01718511#002B0D8036
(1682280061.447550) can0 368#80FF00010000
(1682280061.480260) can0 3AC#C0FF00000000
(1682280061.536206) can0 37D#80FF00280000
(1682280061.590475) can0 32C#80FF00010000
(1682280061.635594) can0 31A#C0FF00000000
(1682280061.714839) can0 00042F11#002B
(1682280061.715553) can0 00BD0111#002B0D8148
(1682280061.757388) can0 340#80FF00010000
(1682280061.763267) can0 367#C0FF00000000
(1682280061.776191) can0 3A1#00
(1682280061.776416) can0 3D0#00
(1682280061.783095) can0 32F#00
(1682280061.796297) can0 331#00
(1682280061.802330) can0 3C9#00
(1682280061.814517) can0 35C#80FF00010000
(1682280061.843536) can0 601#00
(1682280061.844337) can0 001#00180000001B2EAD
(1682280061.844994) can0 101#00000000
(1682280061.845728) can0 201#00B8012400000100
(1682280061.853756) can0 701#00092B7FFFFF0000
(1682280061.869975) can0 37D#80FF00290000
(1682280061.999558) can0 3E3#C0FF00000000
(1682280062.136952) can0 62C#00
(1682280062.137433) can0 067#02140000001B3004
(1682280062.137891) can0 0AC#02140000001B3004
(1682280062.138414) can0 01A#02140000001B3004
(1682280062.138861) can0 068#02140000001B3004
(1682280062.139329) can0 05C#02140000001B3004
(1682280062.141040) can0 02C#02140000001B3004
(1682280062.143188) can0 040#02140000001B3004
(1682280062.145488) can0 0E3#02140000001B3004
(1682280062.147460) can0 07D#02140000001B3004
(1682280062.149031) can0 0C9#02140000001B3004
(1682280062.152074) can0 0A1#02140000001B3004
(1682280062.153053) can0 031#02140000001B3004
(1682280062.155309) can0 0D0#02140000001B3004
(1682280062.157206) can0 02F#02140000001B3004
(1682280062.158895) can0 1E3#00000000
(1682280062.160892) can0 167#00000000
(1682280062.161175) can0 385#00
(1682280062.162892) can0 1AC#00000000
(1682280062.164905) can0 11A#00000000
(1682280062.167052) can0 168#00000000
(1682280062.169036) can0 15C#00000000
(1682280062.170900) can0 12C#00000000
(1682280062.172891) can0 140#00000000
(1682280062.174891) can0 17D#00000000
(1682280062.176938) can0 1C9#00000000
(1682280062.178896) can0 1A1#00000000
(1682280062.180868) can0 131#00000000
(1682280062.183013) can0 1D0#00000000
(1682280062.185123) can0 12F#00000000
(1682280062.187008) can0 2E3#00A32C2100691011
(1682280062.189004) can0 267#00A32C2100002011
(1682280062.192022) can0 2AC#00A32C2100603111
(1682280062.193136) can0 21A#00A32C2100604211
(1682280062.195005) can0 268#00A32C1E003D1011
(1682280062.197180) can0 25C#00A32C1E008F2011
(1682280062.199009) can0 22C#00A32C1E00033019
(1682280062.201013) can0 240#00A32C1E00044011
(1682280062.203144) can0 27D#00A32C1E00055019
(1682280062.204289) can0 37D#80FF00240000
(1682280062.205262) can0 2C9#00A32C0A00431000
(1682280062.207169) can0 2A1#00A32C0A00452000
(1682280062.209140) can0 231#00A32C0A00443100
(1682280062.210997) can0 2D0#00A32C0A00444200
(1682280062.213002) can0 22F#00A32C2700000E00
(1682280062.284555) can0 301#0040
(1682280062.342091) can0 685#00
(1682280062.342573) can0 085#00140000001AE876
(1682280062.342904) can0 185#00000000
(1682280062.343377) can0 285#00A2852B00441201
(1682280062.448299) can0 368#80FF00010000
(1682280062.453335) can0 02145C11#002B
(1682280062.454046) can0 01718511#002B0D7E32
(1682280062.482336) can0 3AC#C0FF00000000
(1682280062.538416) can0 37D#80FF00250000
(1682280062.592394) can0 32C#80FF00010000
(1682280062.636430) can0 31A#C0FF00000000
(1682280062.758503) can0 340#80FF00010000
(1682280062.764391) can0 367#C0FF00000000
(1682280062.777332) can0 3A1#00
(1682280062.777606) can0 3D0#00
(1682280062.784177) can0 32F#00
(1682280062.797391) can0 331#00
(1682280062.802940) can0 3C9#00
(1682280062.815232) can0 35C#80FF00010000
(1682280062.843556) can0 601#00
(1682280062.844359) can0 001#00180000001B2EAD
(1682280062.845008) can0 101#00000000
(1682280062.845748) can0 201#00B8012400000100
(1682280062.853787) can0 701#00092B80FFFF0000
(1682280062.872304) can0 37D#80FF00290000
(1682280063.000262) can0 3E3#C0FF00000000
(1682280063.136937) can0 62C#00
(1682280063.137413) can0 067#02140000001B3004
(1682280063.137888) can0 0AC#02140000001B3004
(1682280063.138365) can0 01A#02140000001B3004
(1682280063.138863) can0 068#02140000001B3004
(1682280063.139328) can0 05C#02140000001B3004
(1682280063.142079) can0 02C#02140000001B3004
(1682280063.143176) can0 040#02140000001B3004
(1682280063.145482) can0 0E3#02140000001B3004
(1682280063.147450) can0 07D#02140000001B3004
(1682280063.149033) can0 0C9#02140000001B3004
(1682280063.152076) can0 0A1#02140000001B3004
(1682280063.153052) can0 031#02140000001B3004
(1682280063.155313) can0 0D0#02140000001B3004
(1682280063.157213) can0 02F#02140000001B3004
(1682280063.159035) can0 1E3#00000000
(1682280063.160898) can0 167#00000000
(1682280063.162135) can0 385#00
(1682280063.163030) can0 1AC#00000000
(1682280063.165159) can0 11A#00000000
(1682280063.166922) can0 168#00000000
(1682280063.168891) can0 15C#00000000
(1682280063.171934) can0 12C#00000000
(1682280063.173038) can0 140#00000000
(1682280063.175152) can0 17D#00000000
(1682280063.176923) can0 1C9#00000000
(1682280063.178895) can0 1A1#00000000
(1682280063.180891) can0 131#00000000
(1682280063.182867) can0 1D0#00000000
(1682280063.184859) can0 12F#00000000
(1682280063.187020) can0 2E3#00A32C2100691011
(1682280063.189143) can0 267#00A32C2100002011
(1682280063.190994) can0 2AC#00A32C2100603111
(1682280063.192992) can0 21A#00A32C2100604211
(1682280063.195260) can0 268#00A32C1E003D1011
(1682280063.197035) can0 25C#00A32C1E008F2011
(1682280063.199155) can0 22C#00A32C1E00033019
(1682280063.201007) can0 240#00A32C1E00044011
(1682280063.203019) can0 27D#00A32C1E00055019
(1682280063.205263) can0 2C9#00A32C0A00431000
(1682280063.206022) can0 37D#80FF00280000
(1682280063.207039) can0 2A1#00A32C0A00452000
(1682280063.209128) can0 231#00A32C0A00443100
(1682280063.212048) can0 2D0#00A32C0A00444200
(1682280063.212998) can0 22F#00A32C2700000E00
(1682280063.214882) can0 00042F11#002B
(1682280063.215598) can0 00BD0111#002B0D7B80
(1682280063.285557) can0 301#0040
(1682280063.342085) can0 685#00
(1682280063.342583) can0 085#00140000001AE876
(1682280063.342877) can0 185#00000000
(1682280063.343359) can0 285#00A2852B00441201
(1682280063.449394) can0 368#80FF00010000
(1682280063.463364) can0 02145C11#002B
(1682280063.464082) can0 01718511#002B0D81A4
(1682280063.483384) can0 3AC#C0FF00000000
(1682280063.540578) can0 37D#80FF00270000
(1682280063.593428) can0 32C#80FF00010000
(1682280063.637492) can0 31A#C0FF00000000
(1682280063.759534) can0 340#80FF00010000
(1682280063.765525) can0 367#C0FF00000000
(1682280063.777959) can0 3D0#00
(1682280063.778418) can0 3A1#00
(1682280063.785312) can0 32F#00
(1682280063.797951) can0 331#00
(1682280063.803959) can0 3C9#00
(1682280063.816210) can0 35C#80FF00010000
(1682280063.843575) can0 601#00
(1682280063.844381) can0 001#00180000001B2EAD
(1682280063.845038) can0 101#00000000
(1682280063.845773) can0 201#00B8012400000100
(1682280063.853816) can0 701#00092B81FFFF0000
(1682280063.874407) can0 37D#80FF00290000
(1682280064.002322) can0 3E3#C0FF00000000
(1682280064.136805) can0 62C#00
(1682280064.137285) can0 068#02140000001B3004
(1682280064.137763) can0 05C#02140000001B3004
(1682280064.138244) can0 02C#02140000001B3004
(1682280064.138742) can0 040#02140000001B3004
(1682280064.139436) can0 0E3#02140000001B3004
(1682280064.141047) can0 067#02140000001B3004
(1682280064.143195) can0 0AC#02140000001B3004
(1682280064.145290) can0 01A#02140000001B3004
(1682280064.147339) can0 07D#02140000001B3004
(1682280064.149038) can0 0C9#02140000001B3004
(1682280064.152083) can0 0A1#02140000001B3004
(1682280064.153173) can0 031#02140000001B3004
(1682280064.155038) can0 0D0#02140000001B3004
(1682280064.157222) can0 02F#02140000001B3004
(1682280064.159015) can0 1E3#00000000
(1682280064.160901) can0 167#00000000
(1682280064.163027) can0 1AC#00000000
(1682280064.163509) can0 385#00
(1682280064.165153) can0 11A#00000000
(1682280064.167047) can0 168#00000000
(1682280064.169030) can0 15C#00000000
(1682280064.171938) can0 12C#00000000
(1682280064.172901) can0 140#00000000
(1682280064.175172) can0 17D#00000000
(1682280064.177051) can0 1C9#00000000
(1682280064.179019) can0 1A1#00000000
(1682280064.180897) can0 131#00000000
(1682280064.182887) can0 1D0#00000000
(1682280064.184857) can0 12F#00000000
(1682280064.187016) can0 2E3#00A32C2100691011
(1682280064.189135) can0 267#00A32C2100002011
(1682280064.192040) can0 2AC#00A32C2100603111
(1682280064.192989) can0 21A#00A32C2100604211
(1682280064.195253) can0 268#00A32C1E003D1011
(1682280064.197175) can0 25C#00A32C1E008F2011
(1682280064.199014) can0 22C#00A32C1E00033019
(1682280064.202046) can0 240#00A32C1E00044011
(1682280064.203153) can0 27D#00A32C1E00055019
(1682280064.205011) can0 2C9#00A32C0A00431000
(1682280064.207166) can0 2A1#00A32C0A00452000
(1682280064.208416) can0 37D#80FF00260000
(1682280064.209140) can0 231#00A32C0A00443100
(1682280064.211004) can0 2D0#00A32C0A00444200
(1682280064.213010) can0 22F#00A32C2700000E00
(1682280064.286612) can0 301#0040
(1682280064.342096) can0 685#00
(1682280064.342574) can0 085#00140000001AE876
(1682280064.342912) can0 185#00000000
(1682280064.343385) can0 285#00A2852B00441201
(1682280064.450590) can0 368#80FF00010000
(1682280064.473348) can0 02145C11#002B
(1682280064.474077) can0 01718511#002B0D8148
(1682280064.484500) can0 3AC#C0FF00000000
(1682280064.542249) can0 37D#80FF00270000
(1682280064.594116) can0 32C#80FF00010000
(1682280064.638211) can0 31A#C0FF00000000
(1682280064.714936) can0 00042F11#002B
(1682280064.715673) can0 00BD0111#002B0D827C
(1682280064.760676) can0 340#80FF00010000
(1682280064.766502) can0 367#C0FF00000000
(1682280064.778799) can0 3A1#00
(1682280064.779083) can0 3D0#00
(1682280064.786295) can0 32F#00
(1682280064.798974) can0 331#00
(1682280064.805110) can0 3C9#00
(1682280064.817260) can0 35C#80FF00010000
(1682280064.843587) can0 601#00
(1682280064.844401) can0 001#00180000001B2EAD
(1682280064.845071) can0 101#00000000
(1682280064.845805) can0 201#00B8012400000100
(1682280064.853830) can0 701#00092B82FFFF0000
(1682280064.876104) can0 37D#80FF00290000
(1682280065.003335) can0 3E3#C0FF00000000
(1682280065.136951) can0 62C#00
(1682280065.137433) can0 0AC#02140000001B3004
(1682280065.137895) can0 01A#02140000001B3004
(1682280065.138429) can0 068#02140000001B3004
(1682280065.138872) can0 05C#02140000001B3004
(1682280065.139337) can0 02C#02140000001B3004
(1682280065.141042) can0 040#02140000001B3004
(1682280065.143386) can0 0E3#02140000001B3004
(1682280065.145043) can0 067#02140000001B3004
(1682280065.147439) can0 07D#02140000001B3004
(1682280065.149030) can0 0C9#02140000001B3004
(1682280065.152077) can0 0A1#02140000001B3004
(1682280065.153043) can0 031#02140000001B3004
(1682280065.155300) can0 0D0#02140000001B3004
(1682280065.157206) can0 02F#02140000001B3004
(1682280065.158892) can0 1E3#00000000
(1682280065.160890) can0 167#00000000
(1682280065.162899) can0 1AC#00000000
(1682280065.164143) can0 385#00
(1682280065.164911) can0 11A#00000000
(1682280065.166972) can0 168#00000000
(1682280065.168898) can0 15C#00000000
(1682280065.170903) can0 12C#00000000
(1682280065.172894) can0 140#00000000
(1682280065.174894) can0 17D#00000000
(1682280065.176937) can0 1C9#00000000
(1682280065.178893) can0 1A1#00000000
(1682280065.180894) can0 131#00000000
(1682280065.183032) can0 1D0#00000000
(1682280065.184886) can0 12F#00000000
(1682280065.187012) can0 2E3#00A32C2100691011
(1682280065.189004) can0 267#00A32C2100002011
(1682280065.192027) can0 2AC#00A32C2100603111
(1682280065.193140) can0 21A#00A32C2100604211
(1682280065.195012) can0 268#00A32C1E003D1011
(1682280065.197184) can0 25C#00A32C1E008F2011
(1682280065.199013) can0 22C#00A32C1E00033019
(1682280065.201016) can0 240#00A32C1E00044011
(1682280065.203159) can0 27D#00A32C1E00055019
(1682280065.205004) can0 2C9#00A32C0A00431000
(1682280065.207162) can0 2A1#00A32C0A00452000
(1682280065.209136) can0 231#00A32C0A00443100
(1682280065.210578) can0 37D#80FF00260000
(1682280065.212083) can0 2D0#00A32C0A00444200
(1682280065.213003) can0 22F#00A32C2700000E00
(1682280065.287634) can0 301#0040
(1682280065.342154) can0 685#00
(1682280065.342635) can0 085#00140000001AE876
(1682280065.342920) can0 185#00000000
(1682280065.343438) can0 285#00A2852B00441201
(1682280065.452012) can0 368#80FF00010000
(1682280065.483355) can0 02145C11#002B
(1682280065.484083) can0 01718511#002B0D8130
(1682280065.485577) can0 3AC#C0FF00000000
(1682280065.544261) can0 37D#80FF00290000
(1682280065.595648) can0 32C#80FF00010000
(1682280065.639192) can0 31A#C0FF00000000
(1682280066.004227) can0 3E3#C0FF00000000
(1682280066.136963) can0 62C#00
(1682280066.137439) can0 040#02140000001B3004
(1682280066.137908) can0 0E3#02140000001B3004
(1682280066.138426) can0 067#02140000001B3004
(1682280066.138870) can0 0AC#02140000001B3004
(1682280066.139352) can0 01A#02140000001B3004
(1682280066.142099) can0 068#02140000001B3004
(1682280066.143053) can0 05C#02140000001B3004
(1682280066.145059) can0 02C#02140000001B3004
(1682280066.147230) can0 07D#02140000001B3004
(1682280066.149178) can0 0C9#02140000001B3004
(1682280066.151063) can0 0A1#02140000001B3004
(1682280066.153037) can0 031#02140000001B3004
(1682280066.155311) can0 0D0#02140000001B3004
(1682280066.156145) can0 37D#80FF00280000
(1682280066.157077) can0 02F#02140000001B3004
(1682280066.159050) can0 1E3#00000000
(1682280066.161949) can0 167#00000000
(1682280066.163025) can0 1AC#00000000
(1682280066.165166) can0 11A#00000000
(1682280066.165406) can0 385#00
(1682280066.167062) can0 168#00000000
(1682280066.169029) can0 15C#00000000
(1682280066.170907) can0 12C#00000000
(1682280066.172902) can0 140#00000000
(1682280066.174909) can0 17D#00000000
(1682280066.176944) can0 1C9#00000000
(1682280066.178897) can0 1A1#00000000
(1682280066.180897) can0 131#00000000
(1682280066.182893) can0 1D0#00000000
(1682280066.184886) can0 12F#00000000
(1682280066.187046) can0 2E3#00A32C2100691011
(1682280066.189131) can0 267#00A32C2100002011
(1682280066.192024) can0 2AC#00A32C2100603111
(1682280066.193143) can0 21A#00A32C2100604211
(1682280066.195016) can0 268#00A32C1E003D1011
(1682280066.197187) can0 25C#00A32C1E008F2011
(1682280066.199016) can0 22C#00A32C1E00033019
(1682280066.201016) can0 240#00A32C1E00044011
(1682280066.203162) can0 27D#00A32C1E00055019
(1682280066.205007) can0 2C9#00A32C0A00431000
(1682280066.207175) can0 2A1#00A32C0A00452000
(1682280066.209141) can0 231#00A32C0A00443100
(1682280066.211004) can0 2D0#00A32C0A00444200
(1682280066.213133) can0 22F#00A32C2700000E00
(1682280066.214971) can0 00042F11#002B
(1682280066.215681) can0 00BD0111#002B0D7CFE
(1682280066.288643) can0 301#0040
(1682280066.342157) can0 685#00
(1682280066.342628) can0 085#00140000001AE876
(1682280066.342911) can0 185#00000000
(1682280066.343440) can0 285#00A2852B00441201
(1682280066.453231) can0 368#80FF00010000
(1682280066.473570) can0 02140002#55
(1682280066.473829) can0 02140002#AA
(1682280066.474236) can0 02158502#5500
(1682280066.474606) can0 02158502#AA00
(1682280066.474888) can0 038D8502#5500
(1682280066.475270) can0 019D8502#5500
(1682280066.475635) can0 02B18502#5500
(1682280066.475970) can0 00698502#5500
(1682280066.476328) can0 01A18502#5500
(1682280066.476687) can0 01718502#5500
(1682280066.477051) can0 00B18502#5500
(1682280066.477379) can0 01018502#5500
(1682280066.477739) can0 01F58502#5500
(1682280066.478104) can0 03258502#5500
(1682280066.478405) can0 02858502#5500
(1682280066.478774) can0 00C58502#5500
(1682280066.479133) can0 03418502#5500
(1682280066.479458) can0 00BD8502#5500
(1682280066.479826) can0 038D8502#AA00
(1682280066.480172) can0 019D8502#AA09
(1682280066.480531) can0 02B18502#AA09
(1682280066.480870) can0 00698502#AA09
(1682280066.481218) can0 01A18502#AA09
(1682280066.481586) can0 01718502#AA09
(1682280066.481917) can0 00B18502#AA09
(1682280066.482289) can0 01018502#AA09
(1682280066.482601) can0 01F58502#AA09
(1682280066.482999) can0 03258502#AA09
(1682280066.483327) can0 02858502#AA09
(1682280066.483699) can0 00C58502#AA09
(1682280066.484026) can0 02146842#0004
(1682280066.484386) can0 03418502#AA09
(1682280066.484750) can0 00BD8502#AA09
(1682280066.485225) can0 01A18542#0004EFCA8C49
(1682280066.485809) can0 02146843#0004479C7E81
(1682280066.486273) can0 01A18543#0004
(1682280066.486660) can0 3AC#C0FF00000000
(1682280066.489961) can0 37D#80FF00260000
(1682280066.493350) can0 02145C11#002B
(1682280066.493598) can0 02166801#
(1682280066.494086) can0 01718511#002B0D7E96
(1682280066.504195) can0 368#81FF00010000
(1682280066.555501) can0 368#81FF004F0000
(1682280066.596349) can0 32C#80FF00010000
(1682280066.606232) can0 368#81FF00A30000
(1682280066.640423) can0 31A#C0FF00000000
(1682280066.657478) can0 368#81FF00E60000
(1682280066.759361) can0 368#81FF01320000
(1682280066.763418) can0 340#80FF00010000
(1682280066.768234) can0 367#C0FF00000000
(1682280066.782199) can0 3A1#00
(1682280066.782465) can0 3D0#00
(1682280066.787982) can0 32F#00
(1682280066.802226) can0 331#00
(1682280066.807183) can0 3C9#00
(1682280066.810617) can0 368#81FF01490000
(1682280066.819399) can0 35C#80FF00010000
(1682280066.824497) can0 37D#80FF00240000
(1682280066.843634) can0 601#00
(1682280066.844449) can0 001#00180000001B2EAD
(1682280066.845096) can0 101#00000000
(1682280066.845839) can0 201#00B8012400000100
(1682280066.853869) can0 701#00092B84FFFF0000
(1682280066.860989) can0 368#81FF015A0000
(1682280066.912247) can0 368#81FF01680000
(1682280066.963459) can0 368#81FF01700000
(1682280066.993492) can0 02146844#0004
(1682280067.005362) can0 3E3#C0FF00000000
(1682280067.014270) can0 368#81FF01770000
(1682280067.065589) can0 368#81FF017B0000
(1682280067.116252) can0 368#81FF017F0000
(1682280067.136955) can0 62C#00
(1682280067.137500) can0 0E3#02140000001B3004
(1682280067.137980) can0 067#02140000001B3004
(1682280067.138459) can0 0AC#02140000001B3004
(1682280067.138947) can0 01A#02140000001B3004
(1682280067.139413) can0 068#06140000001B3004
(1682280067.141050) can0 05C#02140000001B3004
(1682280067.143040) can0 02C#02140000001B3004
(1682280067.145299) can0 040#02140000001B3004
(1682280067.147075) can0 07D#02140000001B3004
(1682280067.149056) can0 0C9#02140000001B3004
(1682280067.152088) can0 0A1#02140000001B3004
(1682280067.153171) can0 031#02140000001B3004
(1682280067.155316) can0 0D0#02140000001B3004
(1682280067.157202) can0 02F#02140000001B3004
(1682280067.158408) can0 37D#80FF00220000
(1682280067.159040) can0 1E3#00000000
(1682280067.161946) can0 167#00000000
(1682280067.162891) can0 1AC#00000000
(1682280067.165179) can0 11A#00000000
(1682280067.166141) can0 385#00
(1682280067.167059) can0 168#00000000
(1682280067.167491) can0 368#81FF01820000
(1682280067.169030) can0 15C#00000000
(1682280067.171944) can0 12C#00000000
(1682280067.173031) can0 140#00000000
(1682280067.175149) can0 17D#00000000
(1682280067.177059) can0 1C9#00000000
(1682280067.179033) can0 1A1#00000000
(1682280067.181940) can0 131#00000000
(1682280067.183035) can0 1D0#00000000
(1682280067.185139) can0 12F#00000000
(1682280067.187177) can0 2E3#00A32C2100691011
(1682280067.189172) can0 267#00A32C2100002011
(1682280067.190998) can0 2AC#00A32C2100603111
(1682280067.193124) can0 21A#00A32C2100604211
(1682280067.195268) can0 268#00A32C1E003D1011
(1682280067.197042) can0 25C#00A32C1E008F2011
(1682280067.199019) can0 22C#00A32C1E00033019
(1682280067.202044) can0 240#00A32C1E00044011
(1682280067.203167) can0 27D#00A32C1E00055019
(1682280067.205008) can0 2C9#00A32C0A00431000
(1682280067.207172) can0 2A1#00A32C0A00452000
(1682280067.209139) can0 231#00A32C0A00443100
(1682280067.212053) can0 2D0#00A32C0A00444200
(1682280067.213005) can0 22F#00A32C2700000E00
(1682280067.218487) can0 368#81FF01840000
(1682280067.269285) can0 368#81FF01850000
(1682280067.289663) can0 301#0040
(1682280067.320239) can0 368#81FF01860000
(1682280067.342129) can0 685#00
(1682280067.342615) can0 085#00140000001AE876
(1682280067.342951) can0 185#00000000
(1682280067.343419) can0 285#00A2852B00441201
(1682280067.372175) can0 368#81FF01870000
(1682280067.487341) can0 3AC#C0FF00000000
(1682280067.492542) can0 37D#80FF00240000
(1682280067.503359) can0 02145C11#002B
(1682280067.503664) can0 02146845#0004
(1682280067.504131) can0 01718511#002B0D7600
(1682280067.504524) can0 01A18545#000400
(1682280067.597439) can0 32C#80FF00010000
(1682280067.642613) can0 31A#C0FF00000000
(1682280067.706144) can0 368#81FF01880000
(1682280067.714998) can0 00042F11#002B
(1682280067.715712) can0 00BD0111#002B0D7549
(1682280067.764113) can0 340#80FF00010000
(1682280067.769413) can0 367#C0FF00000000
(1682280067.782950) can0 3A1#00
(1682280067.783223) can0 3D0#00
(1682280067.789224) can0 32F#00
(1682280067.803017) can0 331#00
(1682280067.803506) can0 02146842#0004
(1682280067.804186) can0 01A18542#0004D5D8B24F
(1682280067.804751) can0 02146843#0004C8FEBAB3
(1682280067.805241) can0 01A18543#0004
(1682280067.808218) can0 3C9#00
(1682280067.813438) can0 02166800#
(1682280067.820554) can0 35C#80FF00010000
(1682280067.822229) can0 368#80FF01880000
(1682280067.826299) can0 37D#80FF00230000
(1682280067.843649) can0 601#00
(1682280067.844480) can0 001#00180000001B2EAD
(1682280067.845120) can0 101#00000000
(1682280067.845863) can0 201#00B8012400000100
(1682280067.853892) can0 701#00092B85FFFF0000
(1682280067.873204) can0 368#80FF013A0000
(1682280067.924350) can0 368#80FF00E60000
(1682280067.975659) can0 368#80FF00A70000
(1682280068.006349) can0 3E3#C0FF00000000
(1682280068.026405) can0 368#80FF007A0000
(1682280068.077608) can0 368#80FF00560000
(1682280068.128245) can0 368#80FF003F0000
(1682280068.136932) can0 62C#00
(1682280068.137397) can0 01A#02140000001B3004
(1682280068.137876) can0 068#06140000001B3004
(1682280068.138361) can0 05C#02140000001B3004
(1682280068.138836) can0 02C#02140000001B3004
(1682280068.139318) can0 040#02140000001B3004
(1682280068.142366) can0 0E3#02140000001B3004
(1682280068.143145) can0 067#02140000001B3004
(1682280068.145011) can0 0AC#02140000001B3004
(1682280068.147362) can0 07D#02140000001B3004
(1682280068.149152) can0 0C9#02140000001B3004
(1682280068.152066) can0 0A1#02140000001B3004
(1682280068.153036) can0 031#02140000001B3004
(1682280068.155288) can0 0D0#02140000001B3004
(1682280068.157056) can0 02F#02140000001B3004
(1682280068.159012) can0 1E3#00000000
(1682280068.160398) can0 37D#80FF00280000
(1682280068.160879) can0 167#00000000
(1682280068.163009) can0 1AC#00000000
(1682280068.165130) can0 11A#00000000
(1682280068.167041) can0 168#00000000
(1682280068.167287) can0 385#00
(1682280068.168881) can0 15C#00000000
(1682280068.170881) can0 12C#00000000
(1682280068.172862) can0 140#00000000
(1682280068.174888) can0 17D#00000000
(1682280068.176909) can0 1C9#00000000
(1682280068.179011) can0 1A1#00000000
(1682280068.179438) can0 368#80FF002E0000
(1682280068.181900) can0 131#00000000
(1682280068.182885) can0 1D0#00000000
(1682280068.184862) can0 12F#00000000
(1682280068.187017) can0 2E3#00A32C2100691011
(1682280068.189005) can0 267#00A32C2100002011
(1682280068.190998) can0 2AC#00A32C2100603111
(1682280068.193005) can0 21A#00A32C2100604211
(1682280068.195261) can0 268#00A32C1E003D1011
(1682280068.197178) can0 25C#00A32C1E008F2011
(1682280068.199010) can0 22C#00A32C1E00033019
(1682280068.201013) can0 240#00A32C1E00044011
(1682280068.203143) can0 27D#00A32C1E00055019
(1682280068.205261) can0 2C9#00A32C0A00431000
(1682280068.207179) can0 2A1#00A32C0A00452000
(1682280068.208994) can0 231#00A32C0A00443100
(1682280068.211005) can0 2D0#00A32C0A00444200
(1682280068.213010) can0 22F#00A32C2700000E00
(1682280068.230472) can0 368#80FF00220000
(1682280068.282196) can0 368#80FF00180000
(1682280068.290678) can0 301#0040
(1682280068.313502) can0 02146844#0004
(1682280068.333454) can0 368#80FF00110000
(1682280068.342159) can0 685#00
(1682280068.342636) can0 085#00140000001AE876
(1682280068.342942) can0 185#00000000
(1682280068.343433) can0 285#00A2852B00441201
(1682280068.384291) can0 368#80FF000D0000
(1682280068.435570) can0 368#80FF00090000
(1682280068.486242) can0 368#80FF00070000
(1682280068.488399) can0 3AC#C0FF00000000
(1682280068.494198) can0 37D#80FF00260000
(1682280068.639364) can0 368#80FF00030000
(1682280068.643265) can0 31A#C0FF00000000
(1682280068.690278) can0 368#80FF00020000
(1682280068.762421) can0 368#80FF00010000
(1682280068.765400) can0 340#80FF00010000
(1682280068.770224) can0 367#C0FF00000000
(1682280068.784098) can0 3A1#00
(1682280068.784346) can0 3D0#00
(1682280068.790456) can0 32F#00
(1682280068.804135) can0 331#00
(1682280068.809101) can0 3C9#00
(1682280068.822399) can0 35C#80FF00010000
(1682280068.823496) can0 02146845#0004
(1682280068.824081) can0 01A18545#000400
(1682280068.828232) can0 37D#80FF00290000
(1682280068.843669) can0 601#00
(1682280068.844301) can0 001#00180000001B2EAD
(1682280068.844956) can0 101#00000000
(1682280068.845681) can0 201#00B8012400000100
(1682280068.853908) can0 701#00092B86FFFF0000
(1682280069.007166) can0 3E3#C0FF00000000
(1682280069.136943) can0 62C#00
(1682280069.137418) can0 0E3#02140000001B3004
(1682280069.137896) can0 067#02140000001B3004
(1682280069.138408) can0 0AC#02140000001B3004
(1682280069.138861) can0 01A#02140000001B3004
(1682280069.139336) can0 068#02140000001B3004
(1682280069.142074) can0 05C#02140000001B3004
(1682280069.143052) can0 02C#02140000001B3004
(1682280069.145062) can0 040#02140000001B3004
(1682280069.147220) can0 07D#02140000001B3004
(1682280069.149169) can0 0C9#02140000001B3004
(1682280069.151057) can0 0A1#02140000001B3004
(1682280069.153183) can0 031#02140000001B3004
(1682280069.155295) can0 0D0#02140000001B3004
(1682280069.157076) can0 02F#02140000001B3004
(1682280069.159036) can0 1E3#00000000
(1682280069.161951) can0 167#00000000
(1682280069.162614) can0 37D#80FF00280000
(1682280069.162894) can0 1AC#00000000
(1682280069.164917) can0 11A#00000000
(1682280069.166927) can0 168#00000000
(1682280069.168164) can0 385#00
(1682280069.168908) can0 15C#00000000
(1682280069.170898) can0 12C#00000000
(1682280069.172890) can0 140#00000000
(1682280069.174888) can0 17D#00000000
(1682280069.176922) can0 1C9#00000000
(1682280069.178893) can0 1A1#00000000
(1682280069.180891) can0 131#00000000
(1682280069.183043) can0 1D0#00000000
(1682280069.185150) can0 12F#00000000
(1682280069.187187) can0 2E3#00A32C2100691011
(1682280069.189028) can0 267#00A32C2100002011
(1682280069.192069) can0 2AC#00A32C2100603111
(1682280069.193174) can0 21A#00A32C2100604211
(1682280069.195014) can0 268#00A32C1E003D1011
(1682280069.197177) can0 25C#00A32C1E008F2011
(1682280069.199016) can0 22C#00A32C1E00033019
(1682280069.202049) can0 240#00A32C1E00044011
(1682280069.203155) can0 27D#00A32C1E00055019
(1682280069.205011) can0 2C9#00A32C0A00431000
(1682280069.207166) can0 2A1#00A32C0A00452000
(1682280069.209000) can0 231#00A32C0A00443100
(1682280069.211012) can0 2D0#00A32C0A00444200
(1682280069.213138) can0 22F#00A32C2700000E00
(1682280069.215016) can0 00042F11#002B
(1682280069.215731) can0 00BD0111#002B0D7CBC
(1682280069.291693) can0 301#0040
(1682280069.342160) can0 685#00
(1682280069.342628) can0 085#00140000001AE876
(1682280069.342946) can0 185#00000000
(1682280069.343425) can0 285#00A2852B00441201
(1682280069.489321) can0 3AC#C0FF00000000
(1682280069.496245) can0 37D#80FF00250000
(1682280069.523386) can0 02145C11#002B
(1682280069.524114) can0 01718511#002B0D80A2
(1682280069.599251) can0 32C#80FF00010000
(1682280069.644376) can0 31A#C0FF00000000
(1682280069.763170) can0 368#80FF00010000
(1682280069.766119) can0 340#80FF00010000
(1682280069.772481) can0 367#C0FF00000000
(1682280069.785064) can0 3D0#00
(1682280069.785519) can0 3A1#00
(1682280069.792275) can0 32F#00
(1682280069.805059) can0 331#00
(1682280069.810029) can0 3C9#00
(1682280069.823265) can0 35C#80FF00010000
(1682280069.830704) can0 37D#80FF00290000
(1682280069.843702) can0 601#00
(1682280069.844510) can0 001#00180000001B2EAD
(1682280069.845160) can0 101#00000000
(1682280069.845906) can0 201#00B8012400000100
(1682280069.853932) can0 701#00092B87FFFF0000
(1682280070.008380) can0 3E3#C0FF00000000
(1682280070.136813) can0 62C#00
(1682280070.137297) can0 0E3#02140000001B3004
(1682280070.137777) can0 067#02140000001B3004
(1682280070.138257) can0 0AC#02140000001B3004
(1682280070.138726) can0 01A#02140000001B3004
(1682280070.139225) can0 068#02140000001B3004
(1682280070.142076) can0 05C#02140000001B3004
(1682280070.143187) can0 02C#02140000001B3004
(1682280070.145047) can0 040#02140000001B3004
(1682280070.147219) can0 07D#02140000001B3004
(1682280070.149171) can0 0C9#02140000001B3004
(1682280070.151044) can0 0A1#02140000001B3004
(1682280070.153196) can0 031#02140000001B3004
(1682280070.155291) can0 0D0#02140000001B3004
(1682280070.157077) can0 02F#02140000001B3004
(1682280070.158919) can0 1E3#00000000
(1682280070.161946) can0 167#00000000
(1682280070.162894) can0 1AC#00000000
(1682280070.164258) can0 37D#80FF00280000
(1682280070.164897) can0 11A#00000000
(1682280070.166921) can0 168#00000000
(1682280070.168896) can0 15C#00000000
(1682280070.169181) can0 385#00
(1682280070.170909) can0 12C#00000000
(1682280070.172894) can0 140#00000000
(1682280070.174922) can0 17D#00000000
(1682280070.176937) can0 1C9#00000000
(1682280070.178898) can0 1A1#00000000
(1682280070.180894) can0 131#00000000
(1682280070.182886) can0 1D0#00000000
(1682280070.184884) can0 12F#00000000
(1682280070.187036) can0 2E3#00A32C2100691011
(1682280070.189168) can0 267#00A32C2100002011
(1682280070.192048) can0 2AC#00A32C2100603111
(1682280070.193006) can0 21A#00A32C2100604211
(1682280070.195037) can0 268#00A32C1E003D1011
(1682280070.197185) can0 25C#00A32C1E008F2011
(1682280070.199017) can0 22C#00A32C1E00033019
(1682280070.202032) can0 240#00A32C1E00044011
(1682280070.203161) can0 27D#00A32C1E00055019
(1682280070.205004) can0 2C9#00A32C0A00431000
(1682280070.207178) can0 2A1#00A32C0A00452000
(1682280070.208992) can0 231#00A32C0A00443100
(1682280070.211006) can0 2D0#00A32C0A00444200
(1682280070.213131) can0 22F#00A32C2700000E00
(1682280070.292729) can0 301#0040
(1682280070.342172) can0 685#00
(1682280070.342635) can0 085#00140000001AE876
(1682280070.342981) can0 185#00000000
(1682280070.343439) can0 285#00A2852B00441201
(1682280070.490267) can0 3AC#C0FF00000000
(1682280070.498199) can0 37D#80FF00290000
(1682280070.533369) can0 02145C11#002B
(1682280070.534074) can0 01718511#002B0D8355
(1682280070.600242) can0 32C#80FF00010000
(1682280070.645411) can0 31A#C0FF00000000
(1682280070.715075) can0 00042F11#002B
(1682280070.715798) can0 00BD0111#002B0D83B8
(1682280070.764457) can0 368#80FF00010000
(1682280070.767463) can0 340#80FF00010000
(1682280070.773348) can0 367#C0FF00000000
