(1682279870.341516) can0 685#00
(1682279870.341940) can0 085#00140000001AE876
(1682279870.342290) can0 185#00000000
(1682279870.342743) can0 285#00A2852B00441201
(1682279870.378832) can0 32C#80FF00010000
(1682279870.390074) can0 37D#80FF00240000
(1682279870.422984) can0 31A#C0FF00000000
(1682279870.545147) can0 340#80FF00010000
(1682279870.552046) can0 367#C0FF00000000
(1682279870.552695) can0 02145C11#002B
(1682279870.553396) can0 01718511#002B0D80C3
(1682279870.563750) can0 3D0#00
(1682279870.564932) can0 3A1#00
(1682279870.571554) can0 32F#00
(1682279870.584940) can0 331#00
(1682279870.591996) can0 3C9#00
(1682279870.602022) can0 35C#80FF00010000
(1682279870.724026) can0 37D#80FF00280000
(1682279870.787288) can0 3E3#C0FF00000000
(1682279870.839249) can0 601#00
(1682279870.839856) can0 001#00180000001B2EAD
(1682279870.840535) can0 101#00000000
(1682279870.841246) can0 201#00B8012400000100
(1682279870.849481) can0 701#00092AC0FFFF0000
(1682279870.969490) can0 385#00
(1682279871.058088) can0 37D#80FF00290000
(1682279871.089281) can0 301#0040
(1682279871.136685) can0 62C#00
(1682279871.137159) can0 02C#02140000001B3004
(1682279871.137634) can0 040#02140000001B3004
(1682279871.138106) can0 0E3#02140000001B3004
(1682279871.138603) can0 067#02140000001B3004
(1682279871.139061) can0 0AC#02140000001B3004
(1682279871.140758) can0 01A#02140000001B3004
(1682279871.142919) can0 068#02140000001B3004
(1682279871.145013) can0 05C#02140000001B3004
(1682279871.146985) can0 07D#02140000001B3004
(1682279871.148761) can0 0C9#02140000001B3004
(1682279871.151791) can0 0A1#02140000001B3004
(1682279871.152758) can0 031#02140000001B3004
(1682279871.155014) can0 0D0#02140000001B3004
(1682279871.156935) can0 02F#02140000001B3004
(1682279871.158616) can0 1E3#00000000
(1682279871.161683) can0 167#00000000
(1682279871.162621) can0 1AC#00000000
(1682279871.164635) can0 11A#00000000
(1682279871.166647) can0 168#00000000
(1682279871.168632) can0 15C#00000000
(1682279871.170626) can0 12C#00000000
(1682279871.172614) can0 140#00000000
(1682279871.174626) can0 17D#00000000
(1682279871.176642) can0 1C9#00000000
(1682279871.178626) can0 1A1#00000000
(1682279871.180624) can0 131#00000000
(1682279871.182756) can0 1D0#00000000
(1682279871.184865) can0 12F#00000000
(1682279871.186906) can0 2E3#00A32C2100691011
(1682279871.188756) can0 267#00A32C2100002011
(1682279871.191769) can0 2AC#00A32C2100603111
(1682279871.192884) can0 21A#00A32C2100604211
(1682279871.194752) can0 268#00A32C1E003D1011
(1682279871.196914) can0 25C#00A32C1E008F2011
(1682279871.198757) can0 22C#00A32C1E00033019
(1682279871.200762) can0 240#00A32C1E00044011
(1682279871.202890) can0 27D#00A32C1E00055019
(1682279871.204755) can0 2C9#00A32C0A00431000
(1682279871.206903) can0 2A1#00A32C0A00452000
(1682279871.208882) can0 231#00A32C0A00443100
(1682279871.210603) can0 00042F11#002B
(1682279871.211090) can0 2D0#00A32C0A00444200
(1682279871.212077) can0 00BD0111#002B0D7E32
(1682279871.212883) can0 22F#00A32C2700000E00
(1682279871.235773) can0 368#80FF00010000
(1682279871.268838) can0 3AC#C0FF00000000
(1682279871.341504) can0 685#00
(1682279871.341961) can0 085#00140000001AE876
(1682279871.342326) can0 185#00000000
(1682279871.342769) can0 285#00A2852B00441201
(1682279871.380128) can0 32C#80FF00010000
(1682279871.392263) can0 37D#80FF00250000
(1682279871.424131) can0 31A#C0FF00000000
(1682279871.546229) can0 340#80FF00010000
(1682279871.553195) can0 367#C0FF00000000
(1682279871.562760) can0 02145C11#002B
(1682279871.563434) can0 01718511#002B0D803E
(1682279871.565021) can0 3D0#00
(1682279871.566021) can0 3A1#00
(1682279871.572834) can0 32F#00
(1682279871.586024) can0 331#00
(1682279871.592669) can0 3C9#00
(1682279871.603189) can0 35C#80FF00010000
(1682279871.725862) can0 37D#80FF00290000
(1682279871.787974) can0 3E3#C0FF00000000
(1682279871.839286) can0 601#00
(1682279871.840082) can0 001#00180000001B2EAD
(1682279871.840730) can0 101#00000000
(1682279871.841467) can0 201#00B8012400000100
(1682279871.849506) can0 701#00092AC1FFFF0000
(1682279871.970567) can0 385#00
(1682279872.090311) can0 301#0040
(1682279872.136694) can0 62C#00
(1682279872.137161) can0 067#02140000001B3004
(1682279872.137628) can0 0AC#02140000001B3004
(1682279872.138122) can0 01A#02140000001B3004
(1682279872.138592) can0 068#02140000001B3004
(1682279872.139076) can0 05C#02140000001B3004
(1682279872.140771) can0 02C#02140000001B3004
(1682279872.142917) can0 040#02140000001B3004
(1682279872.145221) can0 0E3#02140000001B3004
(1682279872.145826) can0 37D#80FF00280000
(1682279872.147177) can0 07D#02140000001B3004
(1682279872.148768) can0 0C9#02140000001B3004
(1682279872.151818) can0 0A1#02140000001B3004
(1682279872.152898) can0 031#02140000001B3004
(1682279872.154772) can0 0D0#02140000001B3004
(1682279872.156793) can0 02F#02140000001B3004
(1682279872.158745) can0 1E3#00000000
(1682279872.161658) can0 167#00000000
(1682279872.162753) can0 1AC#00000000
(1682279872.164890) can0 11A#00000000
(1682279872.166788) can0 168#00000000
(1682279872.168763) can0 15C#00000000
(1682279872.171658) can0 12C#00000000
(1682279872.172759) can0 140#00000000
(1682279872.174872) can0 17D#00000000
(1682279872.176786) can0 1C9#00000000
(1682279872.178754) can0 1A1#00000000
(1682279872.181646) can0 131#00000000
(1682279872.182747) can0 1D0#00000000
(1682279872.184861) can0 12F#00000000
(1682279872.186909) can0 2E3#00A32C2100691011
(1682279872.188896) can0 267#00A32C2100002011
(1682279872.190738) can0 2AC#00A32C2100603111
(1682279872.192746) can0 21A#00A32C2100604211
(1682279872.195009) can0 268#00A32C1E003D1011
(1682279872.196784) can0 25C#00A32C1E008F2011
(1682279872.198893) can0 22C#00A32C1E00033019
(1682279872.201794) can0 240#00A32C1E00044011
(1682279872.202758) can0 27D#00A32C1E00055019
(1682279872.205004) can0 2C9#00A32C0A00431000
(1682279872.206771) can0 2A1#00A32C0A00452000
(1682279872.208746) can0 231#00A32C0A00443100
(1682279872.211792) can0 2D0#00A32C0A00444200
(1682279872.212897) can0 22F#00A32C2700000E00
(1682279872.236859) can0 368#80FF00010000
(1682279872.270007) can0 3AC#C0FF00000000
(1682279872.341502) can0 685#00
(1682279872.341956) can0 085#00140000001AE876
(1682279872.342313) can0 185#00000000
(1682279872.342771) can0 285#00A2852B00441201
(1682279872.382280) can0 32C#80FF00010000
(1682279872.425309) can0 31A#C0FF00000000
(1682279872.480205) can0 37D#80FF00290000
(1682279872.547004) can0 340#80FF00010000
(1682279872.553937) can0 367#C0FF00000000
(1682279872.565873) can0 3D0#00
(1682279872.566954) can0 3A1#00
(1682279872.572701) can0 02145C11#002B
(1682279872.573421) can0 01718511#002B0D83A0
(1682279872.574051) can0 32F#00
(1682279872.586818) can0 331#00
(1682279872.593914) can0 3C9#00
(1682279872.603961) can0 35C#80FF00010000
(1682279872.710644) can0 00042F11#002B
(1682279872.711997) can0 00BD0111#002B0D845F
(1682279872.789079) can0 3E3#C0FF00000000
(1682279872.839290) can0 601#00
(1682279872.840118) can0 001#00180000001B2EAD
(1682279872.840760) can0 101#00000000
(1682279872.841489) can0 201#00B8012400000100
(1682279872.849531) can0 701#00092AC2FFFF0000
(1682279872.971548) can0 385#00
(1682279873.091334) can0 301#0040
(1682279873.136673) can0 62C#00
(1682279873.137147) can0 0E3#02140000001B3004
(1682279873.137632) can0 067#02140000001B3004
(1682279873.138103) can0 0AC#02140000001B3004
(1682279873.138586) can0 01A#02140000001B3004
(1682279873.139063) can0 068#02140000001B3004
(1682279873.140774) can0 05C#02140000001B3004
(1682279873.142766) can0 02C#02140000001B3004
(1682279873.145032) can0 040#02140000001B3004
(1682279873.145914) can0 37D#80FF00280000
(1682279873.146815) can0 07D#02140000001B3004
(1682279873.148756) can0 0C9#02140000001B3004
(1682279873.151815) can0 0A1#02140000001B3004
(1682279873.152773) can0 031#02140000001B3004
(1682279873.154765) can0 0D0#02140000001B3004
(1682279873.156938) can0 02F#02140000001B3004
(1682279873.158746) can0 1E3#00000000
(1682279873.161663) can0 167#00000000
(1682279873.162756) can0 1AC#00000000
(1682279873.164886) can0 11A#00000000
(1682279873.166789) can0 168#00000000
(1682279873.168756) can0 15C#00000000
(1682279873.171658) can0 12C#00000000
(1682279873.172760) can0 140#00000000
(1682279873.174867) can0 17D#00000000
(1682279873.176789) can0 1C9#00000000
(1682279873.178760) can0 1A1#00000000
(1682279873.181654) can0 131#00000000
(1682279873.182759) can0 1D0#00000000
(1682279873.184871) can0 12F#00000000
(1682279873.186909) can0 2E3#00A32C2100691011
(1682279873.188760) can0 267#00A32C2100002011
(1682279873.191787) can0 2AC#00A32C2100603111
(1682279873.192890) can0 21A#00A32C2100604211
(1682279873.195008) can0 268#00A32C1E003D1011
(1682279873.196934) can0 25C#00A32C1E008F2011
(1682279873.198770) can0 22C#00A32C1E00033019
(1682279873.201812) can0 240#00A32C1E00044011
(1682279873.202759) can0 27D#00A32C1E00055019
(1682279873.205007) can0 2C9#00A32C0A00431000
(1682279873.206791) can0 2A1#00A32C0A00452000
(1682279873.208883) can0 231#00A32C0A00443100
(1682279873.211797) can0 2D0#00A32C0A00444200
(1682279873.212756) can0 22F#00A32C2700000E00
(1682279873.238077) can0 368#80FF00010000
(1682279873.272277) can0 3AC#C0FF00000000
(1682279873.341519) can0 685#00
(1682279873.341991) can0 085#00140000001AE876
(1682279873.342330) can0 185#00000000
(1682279873.342813) can0 285#00A2852B00441201
(1682279873.382992) can0 32C#80FF00010000
(1682279873.425953) can0 31A#C0FF00000000
(1682279873.480320) can0 37D#80FF00290000
(1682279873.548160) can0 340#80FF00010000
(1682279873.555219) can0 367#C0FF00000000
(1682279873.567078) can0 3D0#00
(1682279873.567662) can0 3A1#00
(1682279873.575041) can0 32F#00
(1682279873.582694) can0 02145C11#002B
(1682279873.583417) can0 01718511#002B0D8540
(1682279873.587997) can0 331#00
(1682279873.595201) can0 3C9#00
(1682279873.605255) can0 35C#80FF00010000
(1682279873.790226) can0 3E3#C0FF00000000
(1682279873.839338) can0 601#00
(1682279873.839940) can0 001#00180000001B2EAD
(1682279873.840596) can0 101#00000000
(1682279873.841320) can0 201#00B8012400000100
(1682279873.849551) can0 701#00092AC3FFFF0000
(1682279873.972852) can0 385#00
(1682279874.092408) can0 301#0040
(1682279874.136707) can0 62C#00
(1682279874.137156) can0 068#02140000001B3004
(1682279874.137632) can0 05C#02140000001B3004
(1682279874.138129) can0 02C#02140000001B3004
(1682279874.138595) can0 040#02140000001B3004
(1682279874.139123) can0 0E3#02140000001B3004
(1682279874.141806) can0 067#02140000001B3004
(1682279874.142774) can0 0AC#02140000001B3004
(1682279874.144768) can0 01A#02140000001B3004
(1682279874.147082) can0 07D#02140000001B3004
(1682279874.148759) can0 0C9#02140000001B3004
(1682279874.151811) can0 0A1#02140000001B3004
(1682279874.152772) can0 031#02140000001B3004
(1682279874.154768) can0 0D0#02140000001B3004
(1682279874.156936) can0 02F#02140000001B3004
(1682279874.158748) can0 1E3#00000000
(1682279874.160636) can0 167#00000000
(1682279874.162763) can0 1AC#00000000
(1682279874.164629) can0 11A#00000000
(1682279874.165917) can0 37D#80FF00280000
(1682279874.166790) can0 168#00000000
(1682279874.168764) can0 15C#00000000
(1682279874.171661) can0 12C#00000000
(1682279874.172764) can0 140#00000000
(1682279874.174882) can0 17D#00000000
(1682279874.176640) can0 1C9#00000000
(1682279874.178616) can0 1A1#00000000
(1682279874.181661) can0 131#00000000
(1682279874.182629) can0 1D0#00000000
(1682279874.184613) can0 12F#00000000
(1682279874.186773) can0 2E3#00A32C2100691011
(1682279874.188885) can0 267#00A32C2100002011
(1682279874.191784) can0 2AC#00A32C2100603111
(1682279874.192745) can0 21A#00A32C2100604211
(1682279874.195017) can0 268#00A32C1E003D1011
(1682279874.196789) can0 25C#00A32C1E008F2011
(1682279874.198898) can0 22C#00A32C1E00033019
(1682279874.200757) can0 240#00A32C1E00044011
(1682279874.202889) can0 27D#00A32C1E00055019
(1682279874.205020) can0 2C9#00A32C0A00431000
(1682279874.206788) can0 2A1#00A32C0A00452000
(1682279874.208879) can0 231#00A32C0A00443100
(1682279874.210755) can0 2D0#00A32C0A00444200
(1682279874.211120) can0 00042F11#002B
(1682279874.212081) can0 00BD0111#002B0D7FEB
(1682279874.212756) can0 22F#00A32C2700000E00
(1682279874.238930) can0 368#80FF00010000
(1682279874.273078) can0 3AC#C0FF00000000
(1682279874.341530) can0 685#00
(1682279874.342001) can0 085#00140000001AE876
(1682279874.342356) can0 185#00000000
(1682279874.342805) can0 285#00A2852B00441201
(1682279874.384257) can0 32C#80FF00010000
(1682279874.427253) can0 31A#C0FF00000000
(1682279874.500367) can0 37D#80FF00260000
(1682279874.548910) can0 340#80FF00010000
(1682279874.555918) can0 367#C0FF00000000
(1682279874.567823) can0 3D0#00
(1682279874.568869) can0 3A1#00
(1682279874.575714) can0 32F#00
(1682279874.588884) can0 331#00
(1682279874.592722) can0 02145C11#002B
(1682279874.593451) can0 01718511#002B0D8470
(1682279874.595853) can0 3C9#00
(1682279874.605899) can0 35C#80FF00010000
(1682279874.792111) can0 3E3#C0FF00000000
(1682279874.833849) can0 37D#80FF00290000
(1682279874.839342) can0 601#00
(1682279874.840152) can0 001#00180000001B2EAD
(1682279874.840793) can0 101#00000000
(1682279874.841537) can0 201#00B8012400000100
(1682279874.849575) can0 701#00092AC4FFFF0000
(1682279874.973537) can0 385#00
(1682279875.093394) can0 301#0040
(1682279875.136545) can0 62C#00
(1682279875.137013) can0 067#02140000001B3004
(1682279875.137496) can0 0AC#02140000001B3004
(1682279875.137967) can0 01A#02140000001B3004
(1682279875.138454) can0 068#02140000001B3004
(1682279875.138945) can0 05C#02140000001B3004
(1682279875.141805) can0 02C#02140000001B3004
(1682279875.142781) can0 040#02140000001B3004
(1682279875.145211) can0 0E3#02140000001B3004
(1682279875.147189) can0 07D#02140000001B3004
(1682279875.148757) can0 0C9#02140000001B3004
(1682279875.151799) can0 0A1#02140000001B3004
(1682279875.152763) can0 031#02140000001B3004
(1682279875.155029) can0 0D0#02140000001B3004
(1682279875.156949) can0 02F#02140000001B3004
(1682279875.158629) can0 1E3#00000000
(1682279875.160615) can0 167#00000000
(1682279875.162757) can0 1AC#00000000
(1682279875.164889) can0 11A#00000000
(1682279875.166644) can0 168#00000000
(1682279875.168617) can0 15C#00000000
(1682279875.171661) can0 12C#00000000
(1682279875.172755) can0 140#00000000
(1682279875.174646) can0 17D#00000000
(1682279875.176649) can0 1C9#00000000
(1682279875.178622) can0 1A1#00000000
(1682279875.180620) can0 131#00000000
(1682279875.182765) can0 1D0#00000000
(1682279875.184626) can0 12F#00000000
(1682279875.186778) can0 2E3#00A32C2100691011
(1682279875.188893) can0 267#00A32C2100002011
(1682279875.191785) can0 2AC#00A32C2100603111
(1682279875.192206) can0 37D#80FF00280000
(1682279875.192757) can0 21A#00A32C2100604211
(1682279875.195008) can0 268#00A32C1E003D1011
(1682279875.196798) can0 25C#00A32C1E008F2011
(1682279875.198894) can0 22C#00A32C1E00033019
(1682279875.201811) can0 240#00A32C1E00044011
(1682279875.202768) can0 27D#00A32C1E00055019
(1682279875.205018) can0 2C9#00A32C0A00431000
(1682279875.206798) can0 2A1#00A32C0A00452000
(1682279875.208886) can0 231#00A32C0A00443100
(1682279875.210752) can0 2D0#00A32C0A00444200
(1682279875.212762) can0 22F#00A32C2700000E00
(1682279875.240165) can0 368#80FF00010000
(1682279875.274202) can0 3AC#C0FF00000000
(1682279875.341514) can0 685#00
(1682279875.341985) can0 085#00140000001AE876
(1682279875.342350) can0 185#00000000
(1682279875.342798) can0 285#00A2852B00441201
(1682279875.385028) can0 32C#80FF00010000
(1682279875.427954) can0 31A#C0FF00000000
(1682279875.525863) can0 37D#80FF00290000
(1682279875.550211) can0 340#80FF00010000
(1682279875.557134) can0 367#C0FF00000000
(1682279875.569010) can0 3D0#00
(1682279875.570189) can0 3A1#00
(1682279875.576957) can0 32F#00
(1682279875.589511) can0 331#00
(1682279875.596812) can0 3C9#00
(1682279875.602725) can0 02145C11#002B
(1682279875.603422) can0 01718511#002B0D83C9
(1682279875.607185) can0 35C#80FF00010000
(1682279875.710746) can0 00042F11#002B
(1682279875.712006) can0 00BD0111#002B0D85FF
(1682279875.792935) can0 3E3#C0FF00000000
(1682279875.839357) can0 601#00
(1682279875.840184) can0 001#00180000001B2EAD
(1682279875.840824) can0 101#00000000
(1682279875.841569) can0 201#00B8012400000100
(1682279875.849604) can0 701#00092AC5FFFF0000
(1682279875.974511) can0 385#00
(1682279876.094401) can0 301#0040
(1682279876.136661) can0 62C#00
(1682279876.137134) can0 0E3#02140000001B3004
(1682279876.137628) can0 067#02140000001B3004
(1682279876.138090) can0 0AC#02140000001B3004
(1682279876.138613) can0 01A#02140000001B3004
(1682279876.139059) can0 068#02140000001B3004
(1682279876.140774) can0 05C#02140000001B3004
(1682279876.142915) can0 02C#02140000001B3004
(1682279876.145041) can0 040#02140000001B3004
(1682279876.145897) can0 37D#80FF00280000
(1682279876.146814) can0 07D#02140000001B3004
(1682279876.148917) can0 0C9#02140000001B3004
(1682279876.151798) can0 0A1#02140000001B3004
(1682279876.152765) can0 031#02140000001B3004
(1682279876.155025) can0 0D0#02140000001B3004
(1682279876.156944) can0 02F#02140000001B3004
(1682279876.158631) can0 1E3#00000000
(1682279876.160628) can0 167#00000000
(1682279876.162759) can0 1AC#00000000
(1682279876.164881) can0 11A#00000000
(1682279876.166783) can0 168#00000000
(1682279876.168758) can0 15C#00000000
(1682279876.171694) can0 12C#00000000
(1682279876.172756) can0 140#00000000
(1682279876.174870) can0 17D#00000000
(1682279876.176782) can0 1C9#00000000
(1682279876.178743) can0 1A1#00000000
(1682279876.180621) can0 131#00000000
(1682279876.182646) can0 1D0#00000000
(1682279876.184621) can0 12F#00000000
(1682279876.186771) can0 2E3#00A32C2100691011
(1682279876.188889) can0 267#00A32C2100002011
(1682279876.191778) can0 2AC#00A32C2100603111
(1682279876.192746) can0 21A#00A32C2100604211
(1682279876.195007) can0 268#00A32C1E003D1011
(1682279876.196777) can0 25C#00A32C1E008F2011
(1682279876.198768) can0 22C#00A32C1E00033019
(1682279876.201790) can0 240#00A32C1E00044011
(1682279876.202910) can0 27D#00A32C1E00055019
(1682279876.204763) can0 2C9#00A32C0A00431000
(1682279876.206933) can0 2A1#00A32C0A00452000
(1682279876.208742) can0 231#00A32C0A00443100
(1682279876.210763) can0 2D0#00A32C0A00444200
(1682279876.212889) can0 22F#00A32C2700000E00
(1682279876.241878) can0 368#80FF00010000
(1682279876.275015) can0 3AC#C0FF00000000
(1682279876.341512) can0 685#00
(1682279876.341974) can0 085#00140000001AE876
(1682279876.342324) can0 185#00000000
(1682279876.342798) can0 285#00A2852B00441201
(1682279876.386132) can0 32C#80FF00010000
(1682279876.429080) can0 31A#C0FF00000000
(1682279876.480170) can0 37D#80FF00260000
(1682279876.551761) can0 340#80FF00010000
(1682279876.558245) can0 367#C0FF00000000
(1682279876.569535) can0 3D0#00
(1682279876.571840) can0 3A1#00
(1682279876.578035) can0 32F#00
(1682279876.591838) can0 331#00
(1682279876.597875) can0 3C9#00
(1682279876.607914) can0 35C#80FF00010000
(1682279876.612714) can0 02145C11#002B
(1682279876.613416) can0 01718511#002B0D8060
(1682279876.793944) can0 3E3#C0FF00000000
(1682279876.814123) can0 37D#80FF00290000
(1682279876.839388) can0 601#00
(1682279876.840200) can0 001#00180000001B2EAD
(1682279876.840844) can0 101#00000000
(1682279876.841586) can0 201#00B8012400000100
(1682279876.849620) can0 701#00092AC6FFFF0000
(1682279876.975521) can0 385#00
(1682279877.095437) can0 301#0040
(1682279877.136675) can0 62C#00
(1682279877.137147) can0 0AC#02140000001B3004
(1682279877.137627) can0 01A#02140000001B3004
(1682279877.138108) can0 068#02140000001B3004
(1682279877.138594) can0 05C#02140000001B3004
(1682279877.139067) can0 02C#02140000001B3004
(1682279877.141825) can0 040#02140000001B3004
(1682279877.143128) can0 0E3#02140000001B3004
(1682279877.144777) can0 067#02140000001B3004
(1682279877.147150) can0 07D#02140000001B3004
(1682279877.148782) can0 0C9#02140000001B3004
(1682279877.151818) can0 0A1#02140000001B3004
(1682279877.152903) can0 031#02140000001B3004
(1682279877.154778) can0 0D0#02140000001B3004
(1682279877.156952) can0 02F#02140000001B3004
(1682279877.158757) can0 1E3#00000000
(1682279877.161672) can0 167#00000000
(1682279877.162623) can0 1AC#00000000
(1682279877.164636) can0 11A#00000000
(1682279877.166651) can0 168#00000000
(1682279877.168634) can0 15C#00000000
(1682279877.170645) can0 12C#00000000
(1682279877.172634) can0 140#00000000
(1682279877.174642) can0 17D#00000000
(1682279877.176785) can0 1C9#00000000
(1682279877.178754) can0 1A1#00000000
(1682279877.180640) can0 131#00000000
(1682279877.182209) can0 37D#80FF00280000
(1682279877.182627) can0 1D0#00000000
(1682279877.184623) can0 12F#00000000
(1682279877.186791) can0 2E3#00A32C2100691011
(1682279877.188897) can0 267#00A32C2100002011
(1682279877.190751) can0 2AC#00A32C2100603111
(1682279877.192757) can0 21A#00A32C2100604211
(1682279877.195019) can0 268#00A32C1E003D1011
(1682279877.196795) can0 25C#00A32C1E008F2011
(1682279877.198903) can0 22C#00A32C1E00033019
(1682279877.200756) can0 240#00A32C1E00044011
(1682279877.202903) can0 27D#00A32C1E00055019
(1682279877.205024) can0 2C9#00A32C0A00431000
(1682279877.206788) can0 2A1#00A32C0A00452000
(1682279877.208890) can0 231#00A32C0A00443100
(1682279877.210744) can0 00042F11#002B
(1682279877.212010) can0 00BD0111#002B0D7BC3
(1682279877.212498) can0 2D0#00A32C0A00444200
(1682279877.212956) can0 22F#00A32C2700000E00
(1682279877.242839) can0 368#80FF00010000
(1682279877.275935) can0 3AC#C0FF00000000
(1682279877.341538) can0 685#00
(1682279877.342012) can0 085#00140000001AE876
(1682279877.342355) can0 185#00000000
(1682279877.342824) can0 285#00A2852B00441201
(1682279877.387127) can0 32C#80FF00010000
(1682279877.430150) can0 31A#C0FF00000000
(1682279877.515868) can0 37D#80FF00260000
(1682279877.552716) can0 340#80FF00010000
(1682279877.559203) can0 367#C0FF00000000
(1682279877.571740) can0 3D0#00
(1682279877.572790) can0 3A1#00
(1682279877.579012) can0 32F#00
(1682279877.592808) can0 331#00
(1682279877.598846) can0 3C9#00
(1682279877.608888) can0 35C#80FF00010000
(1682279877.622778) can0 02145C11#002B
(1682279877.623490) can0 01718511#002B0D8070
(1682279877.795022) can0 3E3#C0FF00000000
(1682279877.839417) can0 601#00
(1682279877.840217) can0 001#00180000001B2EAD
(1682279877.840868) can0 101#00000000
(1682279877.841610) can0 201#00B8012400000100
(1682279877.849634) can0 701#00092AC7FFFF0000
(1682279877.850156) can0 37D#80FF00290000
(1682279877.976567) can0 385#00
(1682279878.096447) can0 301#0040
(1682279878.136535) can0 62C#00
(1682279878.137013) can0 067#02140000001B3004
(1682279878.137503) can0 0AC#02140000001B3004
(1682279878.137964) can0 01A#02140000001B3004
(1682279878.138454) can0 068#02140000001B3004
(1682279878.138941) can0 05C#02140000001B3004
(1682279878.140783) can0 02C#02140000001B3004
(1682279878.142936) can0 040#02140000001B3004
(1682279878.145243) can0 0E3#02140000001B3004
(1682279878.147180) can0 07D#02140000001B3004
(1682279878.148906) can0 0C9#02140000001B3004
(1682279878.151815) can0 0A1#02140000001B3004
(1682279878.152902) can0 031#02140000001B3004
(1682279878.154787) can0 0D0#02140000001B3004
(1682279878.156813) can0 02F#02140000001B3004
(1682279878.158759) can0 1E3#00000000
(1682279878.160639) can0 167#00000000
(1682279878.162758) can0 1AC#00000000
(1682279878.164892) can0 11A#00000000
(1682279878.166812) can0 168#00000000
(1682279878.168770) can0 15C#00000000
(1682279878.171663) can0 12C#00000000
(1682279878.172755) can0 140#00000000
(1682279878.174874) can0 17D#00000000
(1682279878.176805) can0 1C9#00000000
(1682279878.178758) can0 1A1#00000000
(1682279878.181653) can0 131#00000000
(1682279878.182636) can0 1D0#00000000
(1682279878.184088) can0 37D#80FF00250000
(1682279878.184622) can0 12F#00000000
(1682279878.186903) can0 2E3#00A32C2100691011
(1682279878.188895) can0 267#00A32C2100002011
(1682279878.190741) can0 2AC#00A32C2100603111
(1682279878.192757) can0 21A#00A32C2100604211
(1682279878.195017) can0 268#00A32C1E003D1011
(1682279878.196797) can0 25C#00A32C1E008F2011
(1682279878.198917) can0 22C#00A32C1E00033019
(1682279878.201808) can0 240#00A32C1E00044011
(1682279878.202772) can0 27D#00A32C1E00055019
(1682279878.205020) can0 2C9#00A32C0A00431000
(1682279878.206788) can0 2A1#00A32C0A00452000
(1682279878.208892) can0 231#00A32C0A00443100
(1682279878.211807) can0 2D0#00A32C0A00444200
(1682279878.212756) can0 22F#00A32C2700000E00
(1682279878.243907) can0 368#80FF00010000
(1682279878.277053) can0 3AC#C0FF00000000
(1682279878.341529) can0 685#00
(1682279878.342004) can0 085#00140000001AE876
(1682279878.342356) can0 185#00000000
(1682279878.342812) can0 285#00A2852B00441201
(1682279878.388226) can0 32C#80FF00010000
(1682279878.432268) can0 31A#C0FF00000000
(1682279878.518037) can0 37D#80FF00290000
(1682279878.553943) can0 340#80FF00010000
(1682279878.559707) can0 367#C0FF00000000
(1682279878.572851) can0 3D0#00
(1682279878.573905) can0 3A1#00
(1682279878.579528) can0 32F#00
(1682279878.593929) can0 331#00
(1682279878.600107) can0 3C9#00
(1682279878.610146) can0 35C#80FF00010000
(1682279878.632772) can0 02145C11#002B
(1682279878.633487) can0 01718511#002B0D7F90
(1682279878.710770) can0 00042F11#002B
(1682279878.712018) can0 00BD0111#002B0D7F90
(1682279878.796172) can0 3E3#C0FF00000000
(1682279878.839453) can0 601#00
(1682279878.840260) can0 001#00180000001B2EAD
(1682279878.840896) can0 101#00000000
(1682279878.841634) can0 201#00B8012400000100
(1682279878.849666) can0 701#00092AC8FFFF0000
(1682279878.977523) can0 385#00
(1682279879.097473) can0 301#0040
(1682279879.136700) can0 62C#00
(1682279879.137163) can0 0E3#02140000001B3004
(1682279879.137634) can0 067#02140000001B3004
(1682279879.138117) can0 0AC#02140000001B3004
(1682279879.138593) can0 01A#02140000001B3004
(1682279879.139075) can0 068#02140000001B3004
(1682279879.141804) can0 05C#02140000001B3004
(1682279879.142781) can0 02C#02140000001B3004
(1682279879.144775) can0 040#02140000001B3004
(1682279879.146957) can0 07D#02140000001B3004
(1682279879.148905) can0 0C9#02140000001B3004
(1682279879.150773) can0 0A1#02140000001B3004
(1682279879.152915) can0 031#02140000001B3004
(1682279879.155021) can0 0D0#02140000001B3004
(1682279879.155942) can0 37D#80FF00280000
(1682279879.156956) can0 02F#02140000001B3004
(1682279879.158762) can0 1E3#00000000
(1682279879.161687) can0 167#00000000
(1682279879.162625) can0 1AC#00000000
(1682279879.164639) can0 11A#00000000
(1682279879.166666) can0 168#00000000
(1682279879.168635) can0 15C#00000000
(1682279879.170635) can0 12C#00000000
(1682279879.172628) can0 140#00000000
(1682279879.174627) can0 17D#00000000
(1682279879.176664) can0 1C9#00000000
(1682279879.178769) can0 1A1#00000000
(1682279879.181667) can0 131#00000000
(1682279879.182766) can0 1D0#00000000
(1682279879.184880) can0 12F#00000000
(1682279879.186922) can0 2E3#00A32C2100691011
(1682279879.188757) can0 267#00A32C2100002011
(1682279879.190766) can0 2AC#00A32C2100603111
(1682279879.192888) can0 21A#00A32C2100604211
(1682279879.194762) can0 268#00A32C1E003D1011
(1682279879.196935) can0 25C#00A32C1E008F2011
(1682279879.198913) can0 22C#00A32C1E00033019
(1682279879.200766) can0 240#00A32C1E00044011
(1682279879.202901) can0 27D#00A32C1E00055019
(1682279879.205021) can0 2C9#00A32C0A00431000
(1682279879.206790) can0 2A1#00A32C0A00452000
(1682279879.208888) can0 231#00A32C0A00443100
(1682279879.211798) can0 2D0#00A32C0A00444200
(1682279879.212759) can0 22F#00A32C2700000E00
(1682279879.245175) can0 368#80FF00010000
(1682279879.278167) can0 3AC#C0FF00000000
(1682279879.341542) can0 685#00
(1682279879.342016) can0 085#00140000001AE876
(1682279879.342319) can0 185#00000000
(1682279879.342808) can0 285#00A2852B00441201
(1682279879.388872) can0 32C#80FF00010000
(1682279879.432905) can0 31A#C0FF00000000
(1682279879.490071) can0 37D#80FF00270000
(1682279879.555126) can0 340#80FF00010000
(1682279879.562044) can0 367#C0FF00000000
(1682279879.573900) can0 3D0#00
(1682279879.575073) can0 3A1#00
(1682279879.581830) can0 32F#00
(1682279879.595077) can0 331#00
(1682279879.600527) can0 3C9#00
(1682279879.612174) can0 35C#80FF00010000
(1682279879.642754) can0 02145C11#002B
(1682279879.643479) can0 01718511#002B0D7FB1
(1682279879.797167) can0 3E3#C0FF00000000
(1682279879.823974) can0 37D#80FF00290000
(1682279879.839446) can0 601#00
(1682279879.840071) can0 001#00180000001B2EAD
(1682279879.840730) can0 101#00000000
(1682279879.841457) can0 201#00B8012400000100
(1682279879.849694) can0 701#00092AC9FFFF0000
(1682279879.978578) can0 385#00
(1682279880.098600) can0 301#0040
(1682279880.136686) can0 62C#00
(1682279880.137107) can0 0E3#02140000001B3004
(1682279880.137590) can0 067#02140000001B3004
(1682279880.138064) can0 0AC#02140000001B3004
(1682279880.138540) can0 01A#02140000001B3004
(1682279880.139020) can0 068#02140000001B3004
(1682279880.140744) can0 05C#02140000001B3004
(1682279880.142737) can0 02C#02140000001B3004
(1682279880.145000) can0 040#02140000001B3004
(1682279880.146913) can0 07D#02140000001B3004
(1682279880.148727) can0 0C9#02140000001B3004
(1682279880.151772) can0 0A1#02140000001B3004
(1682279880.152738) can0 031#02140000001B3004
(1682279880.154995) can0 0D0#02140000001B3004
(1682279880.156897) can0 02F#02140000001B3004
(1682279880.158075) can0 37D#80FF00270000
(1682279880.158731) can0 1E3#00000000
(1682279880.161641) can0 167#00000000
(1682279880.162596) can0 1AC#00000000
(1682279880.164607) can0 11A#00000000
(1682279880.166741) can0 168#00000000
(1682279880.168720) can0 15C#00000000
(1682279880.171623) can0 12C#00000000
(1682279880.172721) can0 140#00000000
(1682279880.174833) can0 17D#00000000
(1682279880.176753) can0 1C9#00000000
(1682279880.178724) can0 1A1#00000000
(1682279880.181621) can0 131#00000000
(1682279880.182723) can0 1D0#00000000
(1682279880.184845) can0 12F#00000000
(1682279880.186878) can0 2E3#00A32C2100691011
(1682279880.188720) can0 267#00A32C2100002011
(1682279880.191741) can0 2AC#00A32C2100603111
(1682279880.192859) can0 21A#00A32C2100604211
(1682279880.194969) can0 268#00A32C1E003D1011
(1682279880.196898) can0 25C#00A32C1E008F2011
(1682279880.198857) can0 22C#00A32C1E00033019
(1682279880.201763) can0 240#00A32C1E00044011
(1682279880.202727) can0 27D#00A32C1E00055019
(1682279880.204973) can0 2C9#00A32C0A00431000
(1682279880.206745) can0 2A1#00A32C0A00452000
(1682279880.208851) can0 231#00A32C0A00443100
(1682279880.210761) can0 00042F11#002B
(1682279880.211973) can0 00BD0111#002B0D8312
(1682279880.212451) can0 2D0#00A32C0A00444200
(1682279880.212922) can0 22F#00A32C2700000E00
(1682279880.245804) can0 368#80FF00010000
(1682279880.278862) can0 3AC#C0FF00000000
(1682279880.341507) can0 685#00
(1682279880.341987) can0 085#00140000001AE876
(1682279880.342329) can0 185#00000000
(1682279880.342801) can0 285#00A2852B00441201
(1682279880.390148) can0 32C#80FF00010000
(1682279880.434078) can0 31A#C0FF00000000
(1682279880.492246) can0 37D#80FF00290000
(1682279880.555839) can0 340#80FF00010000
(1682279880.563298) can0 367#C0FF00000000
(1682279880.574812) can0 3D0#00
(1682279880.575814) can0 3A1#00
(1682279880.583093) can0 32F#00
(1682279880.595828) can0 331#00
(1682279880.601873) can0 3C9#00
(1682279880.613015) can0 35C#80FF00010000
(1682279880.652779) can0 02145C11#002B
(1682279880.653498) can0 01718511#002B0D844E
(1682279880.798186) can0 3E3#C0FF00000000
(1682279880.839486) can0 601#00
(1682279880.840083) can0 001#00180000001B2EAD
(1682279880.840765) can0 101#00000000
(1682279880.841479) can0 201#00B8012400000100
(1682279880.849734) can0 701#00092ACAFFFF0000
(1682279880.979533) can0 385#00
(1682279881.099518) can0 301#0040
(1682279881.136547) can0 62C#00
(1682279881.137022) can0 05C#02140000001B3004
(1682279881.137504) can0 02C#02140000001B3004
(1682279881.137985) can0 040#02140000001B3004
(1682279881.138463) can0 0E3#02140000001B3004
(1682279881.138941) can0 067#02140000001B3004
(1682279881.140783) can0 0AC#02140000001B3004
(1682279881.142916) can0 01A#02140000001B3004
(1682279881.145047) can0 068#02140000001B3004
(1682279881.146151) can0 37D#80FF00280000
(1682279881.147044) can0 07D#02140000001B3004
(1682279881.148775) can0 0C9#02140000001B3004
(1682279881.151813) can0 0A1#02140000001B3004
(1682279881.152782) can0 031#02140000001B3004
(1682279881.154788) can0 0D0#02140000001B3004
(1682279881.156949) can0 02F#02140000001B3004
(1682279881.158759) can0 1E3#00000000
(1682279881.160640) can0 167#00000000
(1682279881.162767) can0 1AC#00000000
(1682279881.164893) can0 11A#00000000
(1682279881.166809) can0 168#00000000
(1682279881.168771) can0 15C#00000000
(1682279881.171660) can0 12C#00000000
(1682279881.172636) can0 140#00000000
(1682279881.174874) can0 17D#00000000
(1682279881.176804) can0 1C9#00000000
(1682279881.178763) can0 1A1#00000000
(1682279881.180633) can0 131#00000000
(1682279881.182632) can0 1D0#00000000
(1682279881.184620) can0 12F#00000000
(1682279881.186792) can0 2E3#00A32C2100691011
(1682279881.188897) can0 267#00A32C2100002011
(1682279881.191792) can0 2AC#00A32C2100603111
(1682279881.192900) can0 21A#00A32C2100604211
(1682279881.195016) can0 268#00A32C1E003D1011
(1682279881.196798) can0 25C#00A32C1E008F2011
(1682279881.198789) can0 22C#00A32C1E00033019
(1682279881.201799) can0 240#00A32C1E00044011
(1682279881.202914) can0 27D#00A32C1E00055019
(1682279881.204785) can0 2C9#00A32C0A00431000
(1682279881.206933) can0 2A1#00A32C0A00452000
(1682279881.208757) can0 231#00A32C0A00443100
(1682279881.210771) can0 2D0#00A32C0A00444200
(1682279881.212894) can0 22F#00A32C2700000E00
(1682279881.247137) can0 368#80FF00010000
(1682279881.280324) can0 3AC#C0FF00000000
(1682279881.341566) can0 685#00
(1682279881.342016) can0 085#00140000001AE876
(1682279881.342364) can0 185#00000000
(1682279881.342831) can0 285#00A2852B00441201
(1682279881.391999) can0 32C#80FF00010000
(1682279881.435022) can0 31A#C0FF00000000
(1682279881.479984) can0 37D#80FF00260000
(1682279881.557178) can0 340#80FF00010000
(1682279881.564141) can0 367#C0FF00000000
(1682279881.576067) can0 3D0#00
(1682279881.577136) can0 3A1#00
(1682279881.583915) can0 32F#00
(1682279881.596561) can0 331#00
(1682279881.602683) can0 3C9#00
(1682279881.614268) can0 35C#80FF00010000
(1682279881.662763) can0 02145C11#002B
(1682279881.663463) can0 01718511#002B0D843E
(1682279881.710853) can0 00042F11#002B
(1682279881.712032) can0 00BD0111#002B0D843E
(1682279881.799101) can0 3E3#C0FF00000000
(1682279881.814295) can0 37D#80FF00290000
(1682279881.839490) can0 601#00
(1682279881.840322) can0 001#00180000001B2EAD
(1682279881.840960) can0 101#00000000
(1682279881.841703) can0 201#00B8012400000100
(1682279881.849745) can0 701#00092ACBFFFF0000
(1682279881.980542) can0 385#00
(1682279882.100539) can0 301#0040
(1682279882.136544) can0 62C#00
(1682279882.137028) can0 068#02140000001B3004
(1682279882.137509) can0 05C#02140000001B3004
(1682279882.137986) can0 02C#02140000001B3004
(1682279882.138482) can0 040#02140000001B3004
(1682279882.139164) can0 0E3#02140000001B3004
(1682279882.140784) can0 067#02140000001B3004
(1682279882.142927) can0 0AC#02140000001B3004
(1682279882.145029) can0 01A#02140000001B3004
(1682279882.147076) can0 07D#02140000001B3004
(1682279882.148169) can0 37D#80FF00280000
(1682279882.148778) can0 0C9#02140000001B3004
(1682279882.151821) can0 0A1#02140000001B3004
(1682279882.152797) can0 031#02140000001B3004
(1682279882.154779) can0 0D0#02140000001B3004
(1682279882.156952) can0 02F#02140000001B3004
(1682279882.158768) can0 1E3#00000000
(1682279882.160644) can0 167#00000000
(1682279882.162786) can0 1AC#00000000
(1682279882.164904) can0 11A#00000000
(1682279882.166657) can0 168#00000000
(1682279882.168636) can0 15C#00000000
(1682279882.171712) can0 12C#00000000
(1682279882.172781) can0 140#00000000
(1682279882.174889) can0 17D#00000000
(1682279882.176817) can0 1C9#00000000
(1682279882.178787) can0 1A1#00000000
(1682279882.181657) can0 131#00000000
(1682279882.182768) can0 1D0#00000000
(1682279882.184880) can0 12F#00000000
(1682279882.186917) can0 2E3#00A32C2100691011
(1682279882.188765) can0 267#00A32C2100002011
(1682279882.190764) can0 2AC#00A32C2100603111
(1682279882.192888) can0 21A#00A32C2100604211
(1682279882.195037) can0 268#00A32C1E003D1011
(1682279882.196819) can0 25C#00A32C1E008F2011
(1682279882.198914) can0 22C#00A32C1E00033019
(1682279882.200772) can0 240#00A32C1E00044011
(1682279882.202784) can0 27D#00A32C1E00055019
(1682279882.205038) can0 2C9#00A32C0A00431000
(1682279882.206807) can0 2A1#00A32C0A00452000
(1682279882.208893) can0 231#00A32C0A00443100
(1682279882.211808) can0 2D0#00A32C0A00444200
(1682279882.212925) can0 22F#00A32C2700000E00
(1682279882.248099) can0 368#80FF00010000
(1682279882.282258) can0 3AC#C0FF00000000
(1682279882.341522) can0 685#00
(1682279882.341995) can0 085#00140000001AE876
(1682279882.342330) can0 185#00000000
(1682279882.342816) can0 285#00A2852B00441201
(1682279882.392953) can0 32C#80FF00010000
(1682279882.435978) can0 31A#C0FF00000000
(1682279882.485938) can0 37D#80FF00290000
(1682279882.558271) can0 340#80FF00010000
(1682279882.565307) can0 367#C0FF00000000
(1682279882.577152) can0 3D0#00
(1682279882.577732) can0 3A1#00
(1682279882.585108) can0 32F#00
(1682279882.597763) can0 331#00
(1682279882.603792) can0 3C9#00
(1682279882.615021) can0 35C#80FF00010000
(1682279882.672756) can0 02145C11#002B
(1682279882.673454) can0 01718511#002B0D82AE
(1682279882.800213) can0 3E3#C0FF00000000
(1682279882.839511) can0 601#00
(1682279882.840136) can0 001#00180000001B2EAD
(1682279882.840814) can0 101#00000000
(1682279882.841525) can0 201#00B8012400000100
(1682279882.849757) can0 701#00092ACCFFFF0000
(1682279882.981596) can0 385#00
(1682279883.101561) can0 301#0040
(1682279883.136698) can0 62C#00
(1682279883.137177) can0 068#02140000001B3004
(1682279883.137645) can0 05C#02140000001B3004
(1682279883.138125) can0 02C#02140000001B3004
(1682279883.138625) can0 040#02140000001B3004
(1682279883.139132) can0 0E3#02140000001B3004
(1682279883.141815) can0 067#02140000001B3004
(1682279883.142908) can0 0AC#02140000001B3004
(1682279883.144782) can0 01A#02140000001B3004
(1682279883.147071) can0 07D#02140000001B3004
(1682279883.148770) can0 0C9#02140000001B3004
(1682279883.151818) can0 0A1#02140000001B3004
(1682279883.152794) can0 031#02140000001B3004
(1682279883.154780) can0 0D0#02140000001B3004
(1682279883.156947) can0 02F#02140000001B3004
(1682279883.158761) can0 1E3#00000000
(1682279883.161671) can0 167#00000000
(1682279883.162785) can0 1AC#00000000
(1682279883.164634) can0 11A#00000000
(1682279883.166652) can0 168#00000000
(1682279883.168630) can0 15C#00000000
(1682279883.170637) can0 12C#00000000
(1682279883.172627) can0 140#00000000
(1682279883.174654) can0 17D#00000000
(1682279883.176674) can0 1C9#00000000
(1682279883.178642) can0 1A1#00000000
(1682279883.180645) can0 131#00000000
(1682279883.182282) can0 37D#80FF00280000
(1682279883.182632) can0 1D0#00000000
(1682279883.184632) can0 12F#00000000
(1682279883.186806) can0 2E3#00A32C2100691011
(1682279883.188907) can0 267#00A32C2100002011
(1682279883.190761) can0 2AC#00A32C2100603111
(1682279883.192769) can0 21A#00A32C2100604211
(1682279883.195046) can0 268#00A32C1E003D1011
(1682279883.196819) can0 25C#00A32C1E008F2011
(1682279883.198918) can0 22C#00A32C1E00033019
(1682279883.200781) can0 240#00A32C1E00044011
(1682279883.202911) can0 27D#00A32C1E00055019
(1682279883.205037) can0 2C9#00A32C0A00431000
(1682279883.206816) can0 2A1#00A32C0A00452000
(1682279883.208903) can0 231#00A32C0A00443100
(1682279883.210873) can0 00042F11#002B
(1682279883.212037) can0 00BD0111#002B0D7F2C
(1682279883.212509) can0 2D0#00A32C0A00444200
(1682279883.212975) can0 22F#00A32C2700000E00
(1682279883.248978) can0 368#80FF00010000
(1682279883.283135) can0 3AC#C0FF00000000
(1682279883.341559) can0 685#00
(1682279883.342014) can0 085#00140000001AE876
(1682279883.342358) can0 185#00000000
(1682279883.342835) can0 285#00A2852B00441201
(1682279883.393892) can0 32C#80FF00010000
(1682279883.436894) can0 31A#C0FF00000000
(1682279883.515981) can0 37D#80FF00290000
(1682279883.559038) can0 340#80FF00010000
(1682279883.566059) can0 367#C0FF00000000
(1682279883.577949) can0 3D0#00
(1682279883.579017) can0 3A1#00
(1682279883.585875) can0 32F#00
(1682279883.599043) can0 331#00
(1682279883.605173) can0 3C9#00
(1682279883.616245) can0 35C#80FF00010000
(1682279883.682819) can0 02145C11#002B
(1682279883.683521) can0 01718511#002B0D8060
(1682279883.802037) can0 3E3#C0FF00000000
(1682279883.839543) can0 601#00
(1682279883.840354) can0 001#00180000001B2EAD
(1682279883.841007) can0 101#00000000
(1682279883.841749) can0 201#00B8012400000100
(1682279883.849773) can0 701#00092ACDFFFF0000
(1682279883.982921) can0 385#00
(1682279884.102591) can0 301#0040
(1682279884.136683) can0 62C#00
(1682279884.137157) can0 02C#02140000001B3004
(1682279884.137642) can0 040#02140000001B3004
(1682279884.138122) can0 0E3#02140000001B3004
(1682279884.138633) can0 067#02140000001B3004
(1682279884.139088) can0 0AC#02140000001B3004
(1682279884.141828) can0 01A#02140000001B3004
(1682279884.142812) can0 068#02140000001B3004
(1682279884.144799) can0 05C#02140000001B3004
(1682279884.147044) can0 07D#02140000001B3004
(1682279884.148924) can0 0C9#02140000001B3004
(1682279884.150809) can0 0A1#02140000001B3004
(1682279884.152930) can0 031#02140000001B3004
(1682279884.155056) can0 0D0#02140000001B3004
(1682279884.156200) can0 37D#80FF00280000
(1682279884.156825) can0 02F#02140000001B3004
(1682279884.158796) can0 1E3#00000000
(1682279884.161691) can0 167#00000000
(1682279884.162643) can0 1AC#00000000
(1682279884.164659) can0 11A#00000000
(1682279884.166814) can0 168#00000000
(1682279884.168788) can0 15C#00000000
(1682279884.170647) can0 12C#00000000
(1682279884.172641) can0 140#00000000
(1682279884.174640) can0 17D#00000000
(1682279884.176676) can0 1C9#00000000
(1682279884.178643) can0 1A1#00000000
(1682279884.180639) can0 131#00000000
(1682279884.182787) can0 1D0#00000000
(1682279884.184895) can0 12F#00000000
(1682279884.186791) can0 2E3#00A32C2100691011
(1682279884.188904) can0 267#00A32C2100002011
(1682279884.191810) can0 2AC#00A32C2100603111
(1682279884.192907) can0 21A#00A32C2100604211
(1682279884.194792) can0 268#00A32C1E003D1011
(1682279884.196948) can0 25C#00A32C1E008F2011
(1682279884.198785) can0 22C#00A32C1E00033019
(1682279884.200788) can0 240#00A32C1E00044011
(1682279884.202930) can0 27D#00A32C1E00055019
(1682279884.204775) can0 2C9#00A32C0A00431000
(1682279884.206944) can0 2A1#00A32C0A00452000
(1682279884.208929) can0 231#00A32C0A00443100
(1682279884.210773) can0 2D0#00A32C0A00444200
(1682279884.212777) can0 22F#00A32C2700000E00
(1682279884.249971) can0 368#80FF00010000
(1682279884.284013) can0 3AC#C0FF00000000
(1682279884.341544) can0 685#00
(1682279884.342003) can0 085#00140000001AE876
(1682279884.342324) can0 185#00000000
(1682279884.342815) can0 285#00A2852B00441201
(1682279884.395304) can0 32C#80FF00010000
(1682279884.438207) can0 31A#C0FF00000000
(1682279884.490353) can0 37D#80FF00240000
(1682279884.560411) can0 340#80FF00010000
(1682279884.567319) can0 367#C0FF00000000
(1682279884.578706) can0 3D0#00
(1682279884.579876) can0 3A1#00
(1682279884.587102) can0 32F#00
(1682279884.599882) can0 331#00
(1682279884.605838) can0 3C9#00
(1682279884.616979) can0 35C#80FF00010000
(1682279884.692812) can0 02145C11#002B
(1682279884.693522) can0 01718511#002B0D83E2
(1682279884.710917) can0 00042F11#002B
(1682279884.712032) can0 00BD0111#002B0D8491
(1682279884.803311) can0 3E3#C0FF00000000
(1682279884.824100) can0 37D#80FF00290000
(1682279884.839605) can0 601#00
(1682279884.840389) can0 001#00180000001B2EAD
(1682279884.841034) can0 101#00000000
(1682279884.841769) can0 201#00B8012400000100
(1682279884.849824) can0 701#00092ACEFFFF0000
(1682279884.983560) can0 385#00
(1682279885.103636) can0 301#0040
(1682279885.136706) can0 62C#00
(1682279885.137191) can0 040#02140000001B3004
(1682279885.137664) can0 0E3#02140000001B3004
(1682279885.138135) can0 067#02140000001B3004
(1682279885.138612) can0 0AC#02140000001B3004
(1682279885.139087) can0 01A#02140000001B3004
(1682279885.141832) can0 068#02140000001B3004
(1682279885.142938) can0 05C#02140000001B3004
(1682279885.144796) can0 02C#02140000001B3004
(1682279885.146989) can0 07D#02140000001B3004
(1682279885.148941) can0 0C9#02140000001B3004
(1682279885.151816) can0 0A1#02140000001B3004
(1682279885.152787) can0 031#02140000001B3004
(1682279885.155043) can0 0D0#02140000001B3004
(1682279885.156949) can0 02F#02140000001B3004
(1682279885.158659) can0 1E3#00000000
(1682279885.160646) can0 167#00000000
(1682279885.162777) can0 1AC#00000000
(1682279885.164911) can0 11A#00000000
(1682279885.166809) can0 168#00000000
(1682279885.168784) can0 15C#00000000
(1682279885.171693) can0 12C#00000000
(1682279885.172796) can0 140#00000000
(1682279885.174635) can0 17D#00000000
(1682279885.176667) can0 1C9#00000000
(1682279885.178634) can0 1A1#00000000
(1682279885.180636) can0 131#00000000
(1682279885.182634) can0 1D0#00000000
(1682279885.184636) can0 12F#00000000
(1682279885.186796) can0 2E3#00A32C2100691011
(1682279885.188909) can0 267#00A32C2100002011
(1682279885.190765) can0 2AC#00A32C2100603111
(1682279885.192258) can0 37D#80FF00280000
(1682279885.192913) can0 21A#00A32C2100604211
(1682279885.195036) can0 268#00A32C1E003D1011
(1682279885.196814) can0 25C#00A32C1E008F2011
(1682279885.198912) can0 22C#00A32C1E00033019
(1682279885.201823) can0 240#00A32C1E00044011
(1682279885.202796) can0 27D#00A32C1E00055019
(1682279885.205031) can0 2C9#00A32C0A00431000
(1682279885.206808) can0 2A1#00A32C0A00452000
(1682279885.208905) can0 231#00A32C0A00443100
(1682279885.210769) can0 2D0#00A32C0A00444200
(1682279885.212776) can0 22F#00A32C2700000E00
(1682279885.251897) can0 368#80FF00010000
(1682279885.285048) can0 3AC#C0FF00000000
(1682279885.341515) can0 685#00
(1682279885.342006) can0 085#00140000001AE876
(1682279885.342365) can0 185#00000000
(1682279885.342831) can0 285#00A2852B00441201
(1682279885.396260) can0 32C#80FF00010000
(1682279885.439206) can0 31A#C0FF00000000
(1682279885.526079) can0 37D#80FF00290000
(1682279885.562015) can0 340#80FF00010000
(1682279885.567931) can0 367#C0FF00000000
(1682279885.579941) can0 3D0#00
(1682279885.581971) can0 3A1#00
(1682279885.587716) can0 32F#00
(1682279885.602011) can0 331#00
(1682279885.606990) can0 3C9#00
(1682279885.618100) can0 35C#80FF00010000
(1682279885.702809) can0 02145C11#002B
(1682279885.703530) can0 01718511#002B0D8221
(1682279885.803749) can0 3E3#C0FF00000000
(1682279885.839590) can0 601#00
(1682279885.840205) can0 001#00180000001B2EAD
(1682279885.840869) can0 101#00000000
(1682279885.841593) can0 201#00B8012400000100
(1682279885.849832) can0 701#00092ACFFFFF0000
(1682279885.984563) can0 385#00
(1682279886.104629) can0 301#0040
(1682279886.136569) can0 62C#00
(1682279886.137049) can0 068#02140000001B3004
(1682279886.137521) can0 05C#02140000001B3004
(1682279886.137998) can0 02C#02140000001B3004
(1682279886.138486) can0 040#02140000001B3004
(1682279886.139136) can0 0E3#02140000001B3004
(1682279886.140797) can0 067#02140000001B3004
(1682279886.142934) can0 0AC#02140000001B3004
(1682279886.145049) can0 01A#02140000001B3004
(1682279886.145830) can0 37D#80FF00280000
(1682279886.147082) can0 07D#02140000001B3004
(1682279886.148793) can0 0C9#02140000001B3004
(1682279886.151829) can0 0A1#02140000001B3004
(1682279886.152921) can0 031#02140000001B3004
(1682279886.154806) can0 0D0#02140000001B3004
(1682279886.156827) can0 02F#02140000001B3004
(1682279886.158780) can0 1E3#00000000
(1682279886.161689) can0 167#00000000
(1682279886.162638) can0 1AC#00000000
(1682279886.164650) can0 11A#00000000
(1682279886.166666) can0 168#00000000
(1682279886.168642) can0 15C#00000000
(1682279886.171685) can0 12C#00000000
(1682279886.172798) can0 140#00000000
(1682279886.174896) can0 17D#00000000
(1682279886.176808) can0 1C9#00000000
(1682279886.178785) can0 1A1#00000000
(1682279886.181675) can0 131#00000000
(1682279886.182786) can0 1D0#00000000
(1682279886.184889) can0 12F#00000000
(1682279886.186934) can0 2E3#00A32C2100691011
(1682279886.188773) can0 267#00A32C2100002011
(1682279886.190773) can0 2AC#00A32C2100603111
(1682279886.192898) can0 21A#00A32C2100604211
(1682279886.194777) can0 268#00A32C1E003D1011
(1682279886.196934) can0 25C#00A32C1E008F2011
(1682279886.198922) can0 22C#00A32C1E00033019
(1682279886.201826) can0 240#00A32C1E00044011
(1682279886.202790) can0 27D#00A32C1E00055019
(1682279886.205047) can0 2C9#00A32C0A00431000
(1682279886.206816) can0 2A1#00A32C0A00452000
(1682279886.208902) can0 231#00A32C0A00443100
(1682279886.210939) can0 00042F11#002B
(1682279886.212028) can0 00BD0111#002B0D83E2
(1682279886.212510) can0 2D0#00A32C0A00444200
(1682279886.212988) can0 22F#00A32C2700000E00
(1682279886.253152) can0 368#80FF00010000
(1682279886.285737) can0 3AC#C0FF00000000
(1682279886.341547) can0 685#00
(1682279886.342012) can0 085#00140000001AE876
(1682279886.342354) can0 185#00000000
(1682279886.342824) can0 285#00A2852B00441201
(1682279886.397100) can0 32C#80FF00010000
(1682279886.440167) can0 31A#C0FF00000000
(1682279886.480142) can0 37D#80FF00290000
(1682279886.562920) can0 340#80FF00010000
(1682279886.569302) can0 367#C0FF00000000
(1682279886.581829) can0 3D0#00
(1682279886.582872) can0 3A1#00
(1682279886.589095) can0 32F#00
(1682279886.602903) can0 331#00
(1682279886.607879) can0 3C9#00
(1682279886.619005) can0 35C#80FF00010000
(1682279886.712795) can0 02145C11#002B
(1682279886.713502) can0 01718511#002B0D82D0
(1682279886.805352) can0 3E3#C0FF00000000
(1682279886.839613) can0 601#00
(1682279886.840439) can0 001#00180000001B2EAD
(1682279886.841076) can0 101#00000000
(1682279886.841819) can0 201#00B8012400000100
(1682279886.849850) can0 701#00092AD0FFFF0000
(1682279886.985578) can0 385#00
(1682279887.105651) can0 301#0040
(1682279887.136712) can0 62C#00
(1682279887.137183) can0 0AC#02140000001B3004
(1682279887.137658) can0 01A#02140000001B3004
(1682279887.138143) can0 068#02140000001B3004
(1682279887.138626) can0 05C#02140000001B3004
(1682279887.139117) can0 02C#02140000001B3004
(1682279887.140824) can0 040#02140000001B3004
(1682279887.143147) can0 0E3#02140000001B3004
(1682279887.144819) can0 067#02140000001B3004
(1682279887.146102) can0 37D#80FF00280000
(1682279887.147182) can0 07D#02140000001B3004
(1682279887.148811) can0 0C9#02140000001B3004
(1682279887.151847) can0 0A1#02140000001B3004
(1682279887.152816) can0 031#02140000001B3004
(1682279887.154811) can0 0D0#02140000001B3004
(1682279887.156830) can0 02F#02140000001B3004
(1682279887.158798) can0 1E3#00000000
(1682279887.161698) can0 167#00000000
(1682279887.162791) can0 1AC#00000000
(1682279887.164667) can0 11A#00000000
(1682279887.166688) can0 168#00000000
(1682279887.168662) can0 15C#00000000
(1682279887.171705) can0 12C#00000000
(1682279887.172790) can0 140#00000000
(1682279887.174906) can0 17D#00000000
(1682279887.176825) can0 1C9#00000000
(1682279887.178790) can0 1A1#00000000
(1682279887.181697) can0 131#00000000
(1682279887.182778) can0 1D0#00000000
(1682279887.184893) can0 12F#00000000
(1682279887.186937) can0 2E3#00A32C2100691011
(1682279887.188778) can0 267#00A32C2100002011
(1682279887.190775) can0 2AC#00A32C2100603111
(1682279887.192778) can0 21A#00A32C2100604211
(1682279887.195037) can0 268#00A32C1E003D1011
(1682279887.196809) can0 25C#00A32C1E008F2011
(1682279887.198942) can0 22C#00A32C1E00033019
(1682279887.201824) can0 240#00A32C1E00044011
(1682279887.202792) can0 27D#00A32C1E00055019
(1682279887.205034) can0 2C9#00A32C0A00431000
(1682279887.206811) can0 2A1#00A32C0A00452000
(1682279887.208906) can0 231#00A32C0A00443100
(1682279887.211850) can0 2D0#00A32C0A00444200
(1682279887.212922) can0 22F#00A32C2700000E00
(1682279887.254194) can0 368#80FF00010000
(1682279887.287313) can0 3AC#C0FF00000000
(1682279887.341540) can0 685#00
(1682279887.342006) can0 085#00140000001AE876
(1682279887.342361) can0 185#00000000
(1682279887.342822) can0 285#00A2852B00441201
(1682279887.398021) can0 32C#80FF00010000
(1682279887.442078) can0 31A#C0FF00000000
(1682279887.480013) can0 37D#80FF00290000
(1682279887.564344) can0 340#80FF00010000
(1682279887.570341) can0 367#C0FF00000000
(1682279887.582752) can0 3D0#00
(1682279887.583810) can0 3A1#00
(1682279887.590143) can0 32F#00
(1682279887.603828) can0 331#00
(1682279887.608820) can0 3C9#00
(1682279887.620054) can0 35C#80FF00010000
(1682279887.710979) can0 00042F11#002B
(1682279887.712044) can0 00BD0111#002B0D8652
(1682279887.722781) can0 02145C11#002B
(1682279887.723514) can0 01718511#002B0D8652
(1682279887.806064) can0 3E3#C0FF00000000
(1682279887.839644) can0 601#00
(1682279887.840451) can0 001#00180000001B2EAD
(1682279887.841110) can0 101#00000000
(1682279887.841850) can0 201#00B8012400000100
(1682279887.849885) can0 701#00092AD1FFFF0000
(1682279887.986573) can0 385#00
(1682279888.106678) can0 301#0040
(1682279888.136710) can0 62C#00
(1682279888.137180) can0 0E3#02140000001B3004
(1682279888.137661) can0 067#02140000001B3004
(1682279888.138136) can0 0AC#02140000001B3004
(1682279888.138615) can0 01A#02140000001B3004
(1682279888.139110) can0 068#02140000001B3004
(1682279888.141832) can0 05C#02140000001B3004
(1682279888.142818) can0 02C#02140000001B3004
(1682279888.145074) can0 040#02140000001B3004
(1682279888.146975) can0 07D#02140000001B3004
(1682279888.148925) can0 0C9#02140000001B3004
(1682279888.151844) can0 0A1#02140000001B3004
(1682279888.152931) can0 031#02140000001B3004
(1682279888.155047) can0 0D0#02140000001B3004
(1682279888.156831) can0 02F#02140000001B3004
(1682279888.158796) can0 1E3#00000000
(1682279888.161701) can0 167#00000000
(1682279888.162656) can0 1AC#00000000
(1682279888.164669) can0 11A#00000000
(1682279888.166811) can0 168#00000000
(1682279888.168786) can0 15C#00000000
(1682279888.170665) can0 12C#00000000
(1682279888.172659) can0 140#00000000
(1682279888.174901) can0 17D#00000000
(1682279888.176829) can0 1C9#00000000
(1682279888.178791) can0 1A1#00000000
(1682279888.181685) can0 131#00000000
(1682279888.182138) can0 37D#80FF00280000
(1682279888.182658) can0 1D0#00000000
(1682279888.184891) can0 12F#00000000
(1682279888.186935) can0 2E3#00A32C2100691011
(1682279888.188784) can0 267#00A32C2100002011
(1682279888.190788) can0 2AC#00A32C2100603111
(1682279888.192907) can0 21A#00A32C2100604211
(1682279888.194796) can0 268#00A32C1E003D1011
(1682279888.196950) can0 25C#00A32C1E008F2011
(1682279888.198938) can0 22C#00A32C1E00033019
(1682279888.200797) can0 240#00A32C1E00044011
(1682279888.202943) can0 27D#00A32C1E00055019
(1682279888.204788) can0 2C9#00A32C0A00431000
(1682279888.206952) can0 2A1#00A32C0A00452000
(1682279888.208933) can0 231#00A32C0A00443100
(1682279888.210785) can0 2D0#00A32C0A00444200
(1682279888.212793) can0 22F#00A32C2700000E00
(1682279888.255108) can0 368#80FF00010000
(1682279888.288098) can0 3AC#C0FF00000000
(1682279888.341551) can0 685#00
(1682279888.342014) can0 085#00140000001AE876
(1682279888.342359) can0 185#00000000
(1682279888.342836) can0 285#00A2852B00441201
(1682279888.399283) can0 32C#80FF00010000
(1682279888.443314) can0 31A#C0FF00000000
(1682279888.515910) can0 37D#80FF00270000
(1682279888.565121) can0 340#80FF00010000
(1682279888.572045) can0 367#C0FF00000000
(1682279888.583905) can0 3D0#00
(1682279888.585074) can0 3A1#00
(1682279888.591827) can0 32F#00
(1682279888.605082) can0 331#00
(1682279888.610046) can0 3C9#00
(1682279888.622177) can0 35C#80FF00010000
(1682279888.732823) can0 02145C11#002B
(1682279888.733531) can0 01718511#002B0D8241
(1682279888.807198) can0 3E3#C0FF00000000
(1682279888.839676) can0 601#00
(1682279888.840286) can0 001#00180000001B2EAD
(1682279888.840954) can0 101#00000000
(1682279888.841674) can0 201#00B8012400000100
(1682279888.849891) can0 701#00092AD2FFFF0000
(1682279888.850306) can0 37D#80FF00290000
(1682279888.987590) can0 385#00
(1682279889.107706) can0 301#0040
(1682279889.136696) can0 62C#00
(1682279889.137182) can0 067#02140000001B3004
(1682279889.137648) can0 0AC#02140000001B3004
(1682279889.138122) can0 01A#02140000001B3004
(1682279889.138612) can0 068#02140000001B3004
(1682279889.139085) can0 05C#02140000001B3004
(1682279889.141841) can0 02C#02140000001B3004
(1682279889.142813) can0 040#02140000001B3004
(1682279889.145241) can0 0E3#02140000001B3004
(1682279889.147208) can0 07D#02140000001B3004
(1682279889.148796) can0 0C9#02140000001B3004
(1682279889.151829) can0 0A1#02140000001B3004
(1682279889.152813) can0 031#02140000001B3004
(1682279889.154809) can0 0D0#02140000001B3004
(1682279889.156976) can0 02F#02140000001B3004
(1682279889.158783) can0 1E3#00000000
(1682279889.160657) can0 167#00000000
(1682279889.162795) can0 1AC#00000000
(1682279889.164658) can0 11A#00000000
(1682279889.166677) can0 168#00000000
(1682279889.168653) can0 15C#00000000
(1682279889.171729) can0 12C#00000000
(1682279889.172811) can0 140#00000000
(1682279889.174645) can0 17D#00000000
(1682279889.176679) can0 1C9#00000000
(1682279889.178645) can0 1A1#00000000
(1682279889.181690) can0 131#00000000
(1682279889.182799) can0 1D0#00000000
(1682279889.184184) can0 37D#80FF00280000
(1682279889.184897) can0 12F#00000000
(1682279889.186936) can0 2E3#00A32C2100691011
(1682279889.188780) can0 267#00A32C2100002011
(1682279889.190794) can0 2AC#00A32C2100603111
(1682279889.192913) can0 21A#00A32C2100604211
(1682279889.194807) can0 268#00A32C1E003D1011
(1682279889.196949) can0 25C#00A32C1E008F2011
(1682279889.198941) can0 22C#00A32C1E00033019
(1682279889.200806) can0 240#00A32C1E00044011
(1682279889.202929) can0 27D#00A32C1E00055019
(1682279889.204789) can0 2C9#00A32C0A00431000
(1682279889.206946) can0 2A1#00A32C0A00452000
(1682279889.208930) can0 231#00A32C0A00443100
(1682279889.211013) can0 00042F11#002B
(1682279889.212041) can0 00BD0111#002B0D7FB9
(1682279889.212505) can0 2D0#00A32C0A00444200
(1682279889.212997) can0 22F#00A32C2700000E00
(1682279889.255983) can0 368#80FF00010000
(1682279889.289036) can0 3AC#C0FF00000000
(1682279889.341559) can0 685#00
(1682279889.342039) can0 085#00140000001AE876
(1682279889.342402) can0 185#00000000
(1682279889.342854) can0 285#00A2852B00441201
(1682279889.400327) can0 32C#80FF00010000
(1682279889.444310) can0 31A#C0FF00000000
(1682279889.518063) can0 37D#80FF00290000
(1682279889.566118) can0 340#80FF00010000
(1682279889.573092) can0 367#C0FF00000000
(1682279889.585077) can0 3D0#00
(1682279889.586084) can0 3A1#00
(1682279889.592898) can0 32F#00
(1682279889.605633) can0 331#00
(1682279889.610596) can0 3C9#00
(1682279889.623282) can0 35C#80FF00010000
(1682279889.742816) can0 02145C11#002B
(1682279889.743529) can0 01718511#002B0D84E4
(1682279889.808006) can0 3E3#C0FF00000000
(1682279889.839687) can0 601#00
(1682279889.840506) can0 001#00180000001B2EAD
(1682279889.841143) can0 101#00000000
(1682279889.841884) can0 201#00B8012400000100
(1682279889.849911) can0 701#00092AD3FFFF0000
(1682279889.988562) can0 385#00
(1682279890.108751) can0 301#0040
(1682279890.136579) can0 62C#00
(1682279890.137060) can0 068#02140000001B3004
(1682279890.137539) can0 05C#02140000001B3004
(1682279890.138019) can0 02C#02140000001B3004
(1682279890.138508) can0 040#02140000001B3004
(1682279890.139166) can0 0E3#02140000001B3004
(1682279890.140818) can0 067#02140000001B3004
(1682279890.142805) can0 0AC#02140000001B3004
(1682279890.145063) can0 01A#02140000001B3004
(1682279890.146030) can0 37D#80FF00280000
(1682279890.147106) can0 07D#02140000001B3004
(1682279890.148810) can0 0C9#02140000001B3004
(1682279890.150803) can0 0A1#02140000001B3004
(1682279890.152949) can0 031#02140000001B3004
(1682279890.154812) can0 0D0#02140000001B3004
(1682279890.156841) can0 02F#02140000001B3004
(1682279890.158799) can0 1E3#00000000
(1682279890.161710) can0 167#00000000
(1682279890.162658) can0 1AC#00000000
(1682279890.164668) can0 11A#00000000
(1682279890.166688) can0 168#00000000
(1682279890.168664) can0 15C#00000000
(1682279890.170671) can0 12C#00000000
(1682279890.172803) can0 140#00000000
(1682279890.174933) can0 17D#00000000
(1682279890.176833) can0 1C9#00000000
(1682279890.178653) can0 1A1#00000000
(1682279890.181701) can0 131#00000000
(1682279890.182796) can0 1D0#00000000
(1682279890.184918) can0 12F#00000000
(1682279890.186951) can0 2E3#00A32C2100691011
(1682279890.188793) can0 267#00A32C2100002011
(1682279890.190791) can0 2AC#00A32C2100603111
(1682279890.192918) can0 21A#00A32C2100604211
(1682279890.195059) can0 268#00A32C1E003D1011
(1682279890.196830) can0 25C#00A32C1E008F2011
(1682279890.198944) can0 22C#00A32C1E00033019
(1682279890.200794) can0 240#00A32C1E00044011
(1682279890.202809) can0 27D#00A32C1E00055019
(1682279890.205065) can0 2C9#00A32C0A00431000
(1682279890.206829) can0 2A1#00A32C0A00452000
(1682279890.208919) can0 231#00A32C0A00443100
(1682279890.211842) can0 2D0#00A32C0A00444200
(1682279890.212799) can0 22F#00A32C2700000E00
(1682279890.256941) can0 368#80FF00010000
(1682279890.290084) can0 3AC#C0FF00000000
(1682279890.341577) can0 685#00
(1682279890.342025) can0 085#00140000001AE876
(1682279890.342408) can0 185#00000000
(1682279890.342847) can0 285#00A2852B00441201
(1682279890.402292) can0 32C#80FF00010000
(1682279890.445313) can0 31A#C0FF00000000
(1682279890.536081) can0 37D#80FF00290000
(1682279890.567058) can0 340#80FF00010000
(1682279890.573990) can0 367#C0FF00000000
(1682279890.585924) can0 3D0#00
(1682279890.587011) can0 3A1#00
(1682279890.593812) can0 32F#00
(1682279890.607048) can0 331#00
(1682279890.611979) can0 3C9#00
(1682279890.624183) can0 35C#80FF00010000
(1682279890.711062) can0 00042F11#002B
(1682279890.712069) can0 00BD0111#002B0D8480
(1682279890.752833) can0 02145C11#002B
(1682279890.753511) can0 01718511#002B0D8480
(1682279890.809201) can0 3E3#C0FF00000000
(1682279890.839700) can0 601#00
(1682279890.840515) can0 001#00180000001B2EAD
(1682279890.841171) can0 101#00000000
(1682279890.841909) can0 201#00B8012400000100
(1682279890.849945) can0 701#00092AD4FFFF0000
(1682279890.989598) can0 385#00
(1682279891.109790) can0 301#0040
(1682279891.136571) can0 62C#00
(1682279891.137192) can0 0E3#02140000001B3004
(1682279891.137669) can0 067#02140000001B3004
(1682279891.138134) can0 0AC#02140000001B3004
(1682279891.138612) can0 01A#02140000001B3004
(1682279891.139094) can0 068#02140000001B3004
(1682279891.140817) can0 05C#02140000001B3004
(1682279891.142948) can0 02C#02140000001B3004
(1682279891.144819) can0 040#02140000001B3004
(1682279891.146147) can0 37D#80FF00280000
(1682279891.146988) can0 07D#02140000001B3004
(1682279891.148948) can0 0C9#02140000001B3004
(1682279891.150809) can0 0A1#02140000001B3004
(1682279891.152953) can0 031#02140000001B3004
(1682279891.155057) can0 0D0#02140000001B3004
(1682279891.156848) can0 02F#02140000001B3004
(1682279891.158801) can0 1E3#00000000
(1682279891.161708) can0 167#00000000
(1682279891.162659) can0 1AC#00000000
(1682279891.164670) can0 11A#00000000
(1682279891.166688) can0 168#00000000
(1682279891.168666) can0 15C#00000000
(1682279891.171706) can0 12C#00000000
(1682279891.172800) can0 140#00000000
(1682279891.174930) can0 17D#00000000
(1682279891.176687) can0 1C9#00000000
(1682279891.178655) can0 1A1#00000000
(1682279891.181701) can0 131#00000000
(1682279891.182793) can0 1D0#00000000
(1682279891.184917) can0 12F#00000000
(1682279891.186952) can0 2E3#00A32C2100691011
(1682279891.188794) can0 267#00A32C2100002011
(1682279891.190788) can0 2AC#00A32C2100603111
(1682279891.192915) can0 21A#00A32C2100604211
(1682279891.195061) can0 268#00A32C1E003D1011
(1682279891.196950) can0 25C#00A32C1E008F2011
(1682279891.198940) can0 22C#00A32C1E00033019
(1682279891.201843) can0 240#00A32C1E00044011
(1682279891.202804) can0 27D#00A32C1E00055019
(1682279891.205049) can0 2C9#00A32C0A00431000
(1682279891.206825) can0 2A1#00A32C0A00452000
(1682279891.208920) can0 231#00A32C0A00443100
(1682279891.211844) can0 2D0#00A32C0A00444200
(1682279891.212922) can0 22F#00A32C2700000E00
(1682279891.258118) can0 368#80FF00010000
(1682279891.292276) can0 3AC#C0FF00000000
(1682279891.341555) can0 685#00
(1682279891.342029) can0 085#00140000001AE876
(1682279891.342408) can0 185#00000000
(1682279891.342843) can0 285#00A2852B00441201
(1682279891.402979) can0 32C#80FF00010000
(1682279891.445950) can0 31A#C0FF00000000
(1682279891.480441) can0 37D#80FF00270000
(1682279891.568115) can0 340#80FF00010000
(1682279891.575166) can0 367#C0FF00000000
(1682279891.586995) can0 3D0#00
(1682279891.588050) can0 3A1#00
(1682279891.594951) can0 32F#00
(1682279891.608067) can0 331#00
(1682279891.612995) can0 3C9#00
(1682279891.625311) can0 35C#80FF00010000
(1682279891.762837) can0 02145C11#002B
(1682279891.763560) can0 01718511#002B0D8081
(1682279891.810282) can0 3E3#C0FF00000000
(1682279891.813883) can0 37D#80FF00290000
(1682279891.839730) can0 601#00
(1682279891.840543) can0 001#00180000001B2EAD
(1682279891.841184) can0 101#00000000
(1682279891.841927) can0 201#00B8012400000100
(1682279891.849959) can0 701#00092AD5FFFF0000
(1682279891.990603) can0 385#00
(1682279892.110769) can0 301#0040
(1682279892.136570) can0 62C#00
(1682279892.137055) can0 067#02140000001B3004
(1682279892.137521) can0 0AC#02140000001B3004
(1682279892.137994) can0 01A#02140000001B3004
(1682279892.138482) can0 068#02140000001B3004
(1682279892.138962) can0 05C#02140000001B3004
(1682279892.140824) can0 02C#02140000001B3004
(1682279892.142812) can0 040#02140000001B3004
(1682279892.145267) can0 0E3#02140000001B3004
(1682279892.147202) can0 07D#02140000001B3004
(1682279892.148185) can0 37D#80FF00280000
(1682279892.148819) can0 0C9#02140000001B3004
(1682279892.151849) can0 0A1#02140000001B3004
(1682279892.152819) can0 031#02140000001B3004
(1682279892.154818) can0 0D0#02140000001B3004
(1682279892.156832) can0 02F#02140000001B3004
(1682279892.158797) can0 1E3#00000000
(1682279892.160670) can0 167#00000000
(1682279892.162811) can0 1AC#00000000
(1682279892.164927) can0 11A#00000000
(1682279892.166832) can0 168#00000000
(1682279892.168819) can0 15C#00000000
(1682279892.171730) can0 12C#00000000
(1682279892.172810) can0 140#00000000
(1682279892.174905) can0 17D#00000000
(1682279892.176831) can0 1C9#00000000
(1682279892.178797) can0 1A1#00000000
(1682279892.181687) can0 131#00000000
(1682279892.182666) can0 1D0#00000000
(1682279892.184662) can0 12F#00000000
(1682279892.186828) can0 2E3#00A32C2100691011
(1682279892.188934) can0 267#00A32C2100002011
(1682279892.190781) can0 2AC#00A32C2100603111
(1682279892.192799) can0 21A#00A32C2100604211
(1682279892.195064) can0 268#00A32C1E003D1011
(1682279892.196830) can0 25C#00A32C1E008F2011
(1682279892.198935) can0 22C#00A32C1E00033019
(1682279892.201851) can0 240#00A32C1E00044011
(1682279892.202806) can0 27D#00A32C1E00055019
(1682279892.205033) can0 2C9#00A32C0A00431000
(1682279892.206966) can0 2A1#00A32C0A00452000
(1682279892.208807) can0 231#00A32C0A00443100
(1682279892.211080) can0 00042F11#002B
(1682279892.212055) can0 00BD0111#002B0D7D9C
(1682279892.212521) can0 2D0#00A32C0A00444200
(1682279892.212995) can0 22F#00A32C2700000E00
(1682279892.259031) can0 368#80FF00010000
(1682279892.293182) can0 3AC#C0FF00000000
(1682279892.341543) can0 685#00
(1682279892.342009) can0 085#00140000001AE876
(1682279892.342352) can0 185#00000000
(1682279892.342823) can0 285#00A2852B00441201
(1682279892.403922) can0 32C#80FF00010000
(1682279892.447356) can0 31A#C0FF00000000
(1682279892.482353) can0 37D#80FF00270000
(1682279892.569049) can0 340#80FF00010000
(1682279892.576024) can0 367#C0FF00000000
(1682279892.587941) can0 3D0#00
(1682279892.588960) can0 3A1#00
(1682279892.595805) can0 32F#00
(1682279892.608967) can0 331#00
(1682279892.613918) can0 3C9#00
(1682279892.626156) can0 35C#80FF00010000
(1682279892.772816) can0 02145C11#002B
(1682279892.773514) can0 01718511#002B0D84A1
(1682279892.812200) can0 3E3#C0FF00000000
(1682279892.815943) can0 37D#80FF00290000
(1682279892.839746) can0 601#00
(1682279892.840561) can0 001#00180000001B2EAD
(1682279892.841208) can0 101#00000000
(1682279892.841952) can0 201#00B8012400000100
(1682279892.849985) can0 701#00092AD6FFFF0000
(1682279892.991615) can0 385#00
(1682279893.111786) can0 301#0040
(1682279893.136569) can0 62C#00
(1682279893.137049) can0 067#02140000001B3004
(1682279893.137524) can0 0AC#02140000001B3004
(1682279893.138002) can0 01A#02140000001B3004
(1682279893.138499) can0 068#02140000001B3004
(1682279893.138968) can0 05C#02140000001B3004
(1682279893.140818) can0 02C#02140000001B3004
(1682279893.142977) can0 040#02140000001B3004
(1682279893.145265) can0 0E3#02140000001B3004
(1682279893.147203) can0 07D#02140000001B3004
(1682279893.148944) can0 0C9#02140000001B3004
(1682279893.150206) can0 37D#80FF00280000
(1682279893.151854) can0 0A1#02140000001B3004
(1682279893.152949) can0 031#02140000001B3004
(1682279893.154811) can0 0D0#02140000001B3004
(1682279893.157000) can0 02F#02140000001B3004
(1682279893.158799) can0 1E3#00000000
(1682279893.161695) can0 167#00000000
(1682279893.162635) can0 1AC#00000000
(1682279893.164648) can0 11A#00000000
(1682279893.166668) can0 168#00000000
(1682279893.168643) can0 15C#00000000
(1682279893.170648) can0 12C#00000000
(1682279893.172644) can0 140#00000000
(1682279893.174644) can0 17D#00000000
(1682279893.176802) can0 1C9#00000000
(1682279893.178766) can0 1A1#00000000
(1682279893.181667) can0 131#00000000
(1682279893.182766) can0 1D0#00000000
(1682279893.184879) can0 12F#00000000
(1682279893.186921) can0 2E3#00A32C2100691011
(1682279893.188767) can0 267#00A32C2100002011
(1682279893.191799) can0 2AC#00A32C2100603111
(1682279893.192900) can0 21A#00A32C2100604211
(1682279893.194782) can0 268#00A32C1E003D1011
(1682279893.196938) can0 25C#00A32C1E008F2011
(1682279893.198781) can0 22C#00A32C1E00033019
(1682279893.201808) can0 240#00A32C1E00044011
(1682279893.202928) can0 27D#00A32C1E00055019
(1682279893.205021) can0 2C9#00A32C0A00431000
(1682279893.206947) can0 2A1#00A32C0A00452000
(1682279893.208772) can0 231#00A32C0A00443100
(1682279893.211805) can0 2D0#00A32C0A00444200
(1682279893.212928) can0 22F#00A32C2700000E00
(1682279893.260297) can0 368#80FF00010000
(1682279893.293866) can0 3AC#C0FF00000000
(1682279893.341566) can0 685#00
(1682279893.342051) can0 085#00140000001AE876
(1682279893.342414) can0 185#00000000
(1682279893.342851) can0 285#00A2852B00441201
(1682279893.405145) can0 32C#80FF00010000
(1682279893.448030) can0 31A#C0FF00000000
(1682279893.484099) can0 37D#80FF00290000
(1682279893.570402) can0 340#80FF00010000
(1682279893.577275) can0 367#C0FF00000000
(1682279893.589140) can0 3D0#00
(1682279893.589852) can0 3A1#00
(1682279893.597082) can0 32F#00
(1682279893.609880) can0 331#00
(1682279893.614819) can0 3C9#00
(1682279893.626987) can0 35C#80FF00010000
(1682279893.711130) can0 00042F11#002B
(1682279893.712067) can0 00BD0111#002B0D8550
(1682279893.782835) can0 02145C11#002B
(1682279893.783535) can0 01718511#002B0D8663
(1682279893.813047) can0 3E3#C0FF00000000
(1682279893.839766) can0 601#00
(1682279893.840585) can0 001#00180000001B2EAD
(1682279893.841250) can0 101#00000000
(1682279893.841988) can0 201#00B8012400000100
(1682279893.850011) can0 701#00092AD7FFFF0000
(1682279893.992962) can0 385#00
(1682279894.112825) can0 301#0040
(1682279894.136729) can0 62C#00
(1682279894.137202) can0 0E3#02140000001B3004
(1682279894.137677) can0 067#02140000001B3004
(1682279894.138154) can0 0AC#02140000001B3004
(1682279894.138632) can0 01A#02140000001B3004
(1682279894.139115) can0 068#02140000001B3004
(1682279894.141868) can0 05C#02140000001B3004
(1682279894.142831) can0 02C#02140000001B3004
(1682279894.144825) can0 040#02140000001B3004
(1682279894.146991) can0 07D#02140000001B3004
(1682279894.148945) can0 0C9#02140000001B3004
(1682279894.150817) can0 0A1#02140000001B3004
(1682279894.152957) can0 031#02140000001B3004
(1682279894.155062) can0 0D0#02140000001B3004
(1682279894.156194) can0 37D#80FF00280000
(1682279894.156844) can0 02F#02140000001B3004
(1682279894.158805) can0 1E3#00000000
(1682279894.161716) can0 167#00000000
(1682279894.162660) can0 1AC#00000000
(1682279894.164655) can0 11A#00000000
(1682279894.166675) can0 168#00000000
(1682279894.168650) can0 15C#00000000
(1682279894.170647) can0 12C#00000000
(1682279894.172642) can0 140#00000000
(1682279894.174638) can0 17D#00000000
(1682279894.176676) can0 1C9#00000000
(1682279894.178641) can0 1A1#00000000
(1682279894.181682) can0 131#00000000
(1682279894.182782) can0 1D0#00000000
(1682279894.184896) can0 12F#00000000
(1682279894.186937) can0 2E3#00A32C2100691011
(1682279894.188802) can0 267#00A32C2100002011
(1682279894.191803) can0 2AC#00A32C2100603111
(1682279894.192903) can0 21A#00A32C2100604211
(1682279894.194789) can0 268#00A32C1E003D1011
(1682279894.196943) can0 25C#00A32C1E008F2011
(1682279894.198778) can0 22C#00A32C1E00033019
(1682279894.200784) can0 240#00A32C1E00044011
(1682279894.202928) can0 27D#00A32C1E00055019
(1682279894.205051) can0 2C9#00A32C0A00431000
(1682279894.206932) can0 2A1#00A32C0A00452000
(1682279894.208911) can0 231#00A32C0A00443100
(1682279894.211856) can0 2D0#00A32C0A00444200
(1682279894.212778) can0 22F#00A32C2700000E00
(1682279894.262000) can0 368#80FF00010000
(1682279894.295127) can0 3AC#C0FF00000000
(1682279894.341556) can0 685#00
(1682279894.342021) can0 085#00140000001AE876
(1682279894.342362) can0 185#00000000
(1682279894.342831) can0 285#00A2852B00441201
(1682279894.406244) can0 32C#80FF00010000
(1682279894.449177) can0 31A#C0FF00000000
(1682279894.490354) can0 37D#80FF00250000
(1682279894.572012) can0 340#80FF00010000
(1682279894.577897) can0 367#C0FF00000000
(1682279894.589867) can0 3D0#00
(1682279894.591935) can0 3A1#00
(1682279894.598147) can0 32F#00
(1682279894.611951) can0 331#00
(1682279894.615809) can0 3C9#00
(1682279894.628031) can0 35C#80FF00010000
(1682279894.792787) can0 02145C11#002B
(1682279894.793487) can0 01718511#002B0D8242
(1682279894.814040) can0 3E3#C0FF00000000
(1682279894.824311) can0 37D#80FF00290000
(1682279894.839794) can0 601#00
(1682279894.840622) can0 001#00180000001B2EAD
(1682279894.841258) can0 101#00000000
(1682279894.841998) can0 201#00B8012400000100
(1682279894.850032) can0 701#00092AD8FFFF0000
(1682279894.993610) can0 385#00
(1682279895.113889) can0 301#0040
(1682279895.136738) can0 62C#00
(1682279895.137204) can0 067#02140000001B3004
(1682279895.137683) can0 0AC#02140000001B3004
(1682279895.138161) can0 01A#02140000001B3004
(1682279895.138645) can0 068#02140000001B3004
(1682279895.139120) can0 05C#02140000001B3004
(1682279895.140824) can0 02C#02140000001B3004
(1682279895.142820) can0 040#02140000001B3004
(1682279895.145275) can0 0E3#02140000001B3004
(1682279895.147224) can0 07D#02140000001B3004
(1682279895.148939) can0 0C9#02140000001B3004
(1682279895.150808) can0 0A1#02140000001B3004
(1682279895.152935) can0 031#02140000001B3004
(1682279895.154823) can0 0D0#02140000001B3004
(1682279895.156995) can0 02F#02140000001B3004
(1682279895.158265) can0 37D#80FF00270000
(1682279895.158670) can0 1E3#00000000
(1682279895.160670) can0 167#00000000
(1682279895.162800) can0 1AC#00000000
(1682279895.164927) can0 11A#00000000
(1682279895.166813) can0 168#00000000
(1682279895.168794) can0 15C#00000000
(1682279895.171706) can0 12C#00000000
(1682279895.172652) can0 140#00000000
(1682279895.174884) can0 17D#00000000
(1682279895.176807) can0 1C9#00000000
(1682279895.178770) can0 1A1#00000000
(1682279895.180641) can0 131#00000000
(1682279895.182642) can0 1D0#00000000
(1682279895.184636) can0 12F#00000000
(1682279895.186790) can0 2E3#00A32C2100691011
(1682279895.188918) can0 267#00A32C2100002011
(1682279895.191803) can0 2AC#00A32C2100603111
(1682279895.192762) can0 21A#00A32C2100604211
(1682279895.195027) can0 268#00A32C1E003D1011
(1682279895.196807) can0 25C#00A32C1E008F2011
(1682279895.198802) can0 22C#00A32C1E00033019
(1682279895.201816) can0 240#00A32C1E00044011
(1682279895.202928) can0 27D#00A32C1E00055019
(1682279895.204783) can0 2C9#00A32C0A00431000
(1682279895.206946) can0 2A1#00A32C0A00452000
(1682279895.208771) can0 231#00A32C0A00443100
(1682279895.210783) can0 2D0#00A32C0A00444200
(1682279895.211136) can0 00042F11#002B
(1682279895.212124) can0 00BD0111#002B0D7D07
(1682279895.212920) can0 22F#00A32C2700000E00
(1682279895.262910) can0 368#80FF00010000
(1682279895.295985) can0 3AC#C0FF00000000
(1682279895.341562) can0 685#00
(1682279895.342026) can0 085#00140000001AE876
(1682279895.342364) can0 185#00000000
(1682279895.342836) can0 285#00A2852B00441201
(1682279895.407188) can0 32C#80FF00010000
(1682279895.450216) can0 31A#C0FF00000000
(1682279895.492293) can0 37D#80FF00260000
(1682279895.572960) can0 340#80FF00010000
(1682279895.579331) can0 367#C0FF00000000
(1682279895.591873) can0 3D0#00
(1682279895.592914) can0 3A1#00
(1682279895.599135) can0 32F#00
(1682279895.612944) can0 331#00
(1682279895.616839) can0 3C9#00
(1682279895.629041) can0 35C#80FF00010000
(1682279895.802806) can0 02145C11#002B
(1682279895.803521) can0 01718511#002B0D8106
(1682279895.815155) can0 3E3#C0FF00000000
(1682279895.825957) can0 37D#80FF00280000
(1682279895.839820) can0 601#00
(1682279895.840634) can0 001#00180000001B2EAD
(1682279895.841281) can0 101#00000000
(1682279895.842024) can0 201#00B8012400000100
(1682279895.850067) can0 701#00092AD9FFFF0000
(1682279895.994607) can0 385#00
(1682279896.114859) can0 301#0040
(1682279896.136723) can0 62C#00
(1682279896.137217) can0 0E3#02140000001B3004
(1682279896.137702) can0 067#02140000001B3004
(1682279896.138184) can0 0AC#02140000001B3004
(1682279896.138645) can0 01A#02140000001B3004
(1682279896.139138) can0 068#02140000001B3004
(1682279896.140825) can0 05C#02140000001B3004
(1682279896.142962) can0 02C#02140000001B3004
(1682279896.145080) can0 040#02140000001B3004
(1682279896.146852) can0 07D#02140000001B3004
(1682279896.148817) can0 0C9#02140000001B3004
(1682279896.151859) can0 0A1#02140000001B3004
(1682279896.152823) can0 031#02140000001B3004
(1682279896.155080) can0 0D0#02140000001B3004
(1682279896.156984) can0 02F#02140000001B3004
(1682279896.158810) can0 1E3#00000000
(1682279896.160672) can0 167#00000000
(1682279896.162088) can0 37D#80FF00270000
(1682279896.162673) can0 1AC#00000000
(1682279896.164924) can0 11A#00000000
(1682279896.166834) can0 168#00000000
(1682279896.168796) can0 15C#00000000
(1682279896.171681) can0 12C#00000000
(1682279896.172775) can0 140#00000000
(1682279896.174891) can0 17D#00000000
(1682279896.176819) can0 1C9#00000000
(1682279896.178808) can0 1A1#00000000
(1682279896.181681) can0 131#00000000
(1682279896.182777) can0 1D0#00000000
(1682279896.184884) can0 12F#00000000
(1682279896.186927) can0 2E3#00A32C2100691011
(1682279896.188771) can0 267#00A32C2100002011
(1682279896.190768) can0 2AC#00A32C2100603111
(1682279896.192770) can0 21A#00A32C2100604211
(1682279896.195031) can0 268#00A32C1E003D1011
(1682279896.196816) can0 25C#00A32C1E008F2011
(1682279896.198921) can0 22C#00A32C1E00033019
(1682279896.201831) can0 240#00A32C1E00044011
(1682279896.202795) can0 27D#00A32C1E00055019
(1682279896.205028) can0 2C9#00A32C0A00431000
(1682279896.206830) can0 2A1#00A32C0A00452000
(1682279896.208921) can0 231#00A32C0A00443100
(1682279896.211822) can0 2D0#00A32C0A00444200
(1682279896.212930) can0 22F#00A32C2700000E00
(1682279896.264247) can0 368#80FF00010000
(1682279896.297338) can0 3AC#C0FF00000000
(1682279896.341567) can0 685#00
(1682279896.342042) can0 085#00140000001AE876
(1682279896.342423) can0 185#00000000
(1682279896.342855) can0 285#00A2852B00441201
(1682279896.408042) can0 32C#80FF00010000
(1682279896.452077) can0 31A#C0FF00000000
(1682279896.495937) can0 37D#80FF00290000
(1682279896.574281) can0 340#80FF00010000
(1682279896.580292) can0 367#C0FF00000000
(1682279896.592713) can0 3D0#00
(1682279896.593767) can0 3A1#00
(1682279896.600108) can0 32F#00
(1682279896.613796) can0 331#00
(1682279896.617692) can0 3C9#00
(1682279896.630008) can0 35C#80FF00010000
(1682279896.711188) can0 00042F11#002B
(1682279896.712063) can0 00BD0111#002B0D8161
(1682279896.812811) can0 02145C11#002B
(1682279896.813540) can0 01718511#002B0D8151
(1682279896.816018) can0 3E3#C0FF00000000
(1682279896.839837) can0 601#00
(1682279896.840652) can0 001#00180000001B2EAD
(1682279896.841322) can0 101#00000000
(1682279896.842055) can0 201#00B8012400000100
(1682279896.850080) can0 701#00092ADAFFFF0000
(1682279896.995610) can0 385#00
(1682279897.115893) can0 301#0040
(1682279897.136722) can0 62C#00
(1682279897.137198) can0 0E3#02140000001B3004
(1682279897.137674) can0 067#02140000001B3004
(1682279897.138151) can0 0AC#02140000001B3004
(1682279897.138638) can0 01A#02140000001B3004
(1682279897.139126) can0 068#02140000001B3004
(1682279897.141849) can0 05C#02140000001B3004
(1682279897.142826) can0 02C#02140000001B3004
(1682279897.144825) can0 040#02140000001B3004
(1682279897.146993) can0 07D#02140000001B3004
(1682279897.148941) can0 0C9#02140000001B3004
(1682279897.150812) can0 0A1#02140000001B3004
(1682279897.152952) can0 031#02140000001B3004
(1682279897.155069) can0 0D0#02140000001B3004
(1682279897.155941) can0 37D#80FF00280000
(1682279897.156853) can0 02F#02140000001B3004
(1682279897.158816) can0 1E3#00000000
(1682279897.161717) can0 167#00000000
(1682279897.162656) can0 1AC#00000000
(1682279897.164667) can0 11A#00000000
(1682279897.166700) can0 168#00000000
(1682279897.168691) can0 15C#00000000
(1682279897.170664) can0 12C#00000000
(1682279897.172659) can0 140#00000000
(1682279897.174648) can0 17D#00000000
(1682279897.176680) can0 1C9#00000000
(1682279897.178644) can0 1A1#00000000
(1682279897.181692) can0 131#00000000
(1682279897.182788) can0 1D0#00000000
(1682279897.184637) can0 12F#00000000
(1682279897.186791) can0 2E3#00A32C2100691011
(1682279897.188783) can0 267#00A32C2100002011
(1682279897.191790) can0 2AC#00A32C2100603111
(1682279897.192904) can0 21A#00A32C2100604211
(1682279897.194787) can0 268#00A32C1E003D1011
(1682279897.196949) can0 25C#00A32C1E008F2011
(1682279897.198792) can0 22C#00A32C1E00033019
(1682279897.200797) can0 240#00A32C1E00044011
(1682279897.202923) can0 27D#00A32C1E00055019
(1682279897.204781) can0 2C9#00A32C0A00431000
(1682279897.206943) can0 2A1#00A32C0A00452000
(1682279897.208924) can0 231#00A32C0A00443100
(1682279897.210780) can0 2D0#00A32C0A00444200
(1682279897.212793) can0 22F#00A32C2700000E00
(1682279897.265040) can0 368#80FF00010000
(1682279897.298016) can0 3AC#C0FF00000000
(1682279897.341575) can0 685#00
(1682279897.342047) can0 085#00140000001AE876
(1682279897.342393) can0 185#00000000
(1682279897.342861) can0 285#00A2852B00441201
(1682279897.409206) can0 32C#80FF00010000
(1682279897.453241) can0 31A#C0FF00000000
(1682279897.490045) can0 37D#80FF00260000
(1682279897.575086) can0 340#80FF00010000
(1682279897.581968) can0 367#C0FF00000000
(1682279897.593829) can0 3D0#00
(1682279897.594998) can0 3A1#00
(1682279897.601745) can0 32F#00
(1682279897.615007) can0 331#00
(1682279897.618783) can0 3C9#00
(1682279897.632096) can0 35C#80FF00010000
(1682279897.817240) can0 3E3#C0FF00000000
(1682279897.822824) can0 02145C11#002B
(1682279897.823540) can0 01718511#002B0D8365
(1682279897.824033) can0 37D#80FF00290000
(1682279897.839851) can0 601#00
(1682279897.840475) can0 001#00180000001B2EAD
(1682279897.841142) can0 101#00000000
(1682279897.841884) can0 201#00B8012400000100
(1682279897.850099) can0 701#00092ADBFFFF0000
(1682279897.996625) can0 385#00
(1682279898.116902) can0 301#0040
(1682279898.136715) can0 62C#00
(1682279898.137187) can0 0E3#02140000001B3004
(1682279898.137667) can0 067#02140000001B3004
(1682279898.138143) can0 0AC#02140000001B3004
(1682279898.138622) can0 01A#02140000001B3004
(1682279898.139117) can0 068#02140000001B3004
(1682279898.141854) can0 05C#02140000001B3004
(1682279898.142950) can0 02C#02140000001B3004
(1682279898.144830) can0 040#02140000001B3004
(1682279898.146859) can0 07D#02140000001B3004
(1682279898.148952) can0 0C9#02140000001B3004
(1682279898.150827) can0 0A1#02140000001B3004
(1682279898.152952) can0 031#02140000001B3004
(1682279898.155069) can0 0D0#02140000001B3004
(1682279898.156970) can0 02F#02140000001B3004
(1682279898.157951) can0 37D#80FF00280000
(1682279898.158821) can0 1E3#00000000
(1682279898.161717) can0 167#00000000
(1682279898.162665) can0 1AC#00000000
(1682279898.164923) can0 11A#00000000
(1682279898.166826) can0 168#00000000
(1682279898.168674) can0 15C#00000000
(1682279898.170674) can0 12C#00000000
(1682279898.172648) can0 140#00000000
(1682279898.174644) can0 17D#00000000
(1682279898.176674) can0 1C9#00000000
(1682279898.178644) can0 1A1#00000000
(1682279898.181685) can0 131#00000000
(1682279898.182796) can0 1D0#00000000
(1682279898.184632) can0 12F#00000000
(1682279898.186799) can0 2E3#00A32C2100691011
(1682279898.188914) can0 267#00A32C2100002011
(1682279898.191792) can0 2AC#00A32C2100603111
(1682279898.192918) can0 21A#00A32C2100604211
(1682279898.194784) can0 268#00A32C1E003D1011
(1682279898.196959) can0 25C#00A32C1E008F2011
(1682279898.198780) can0 22C#00A32C1E00033019
(1682279898.200784) can0 240#00A32C1E00044011
(1682279898.202932) can0 27D#00A32C1E00055019
(1682279898.204783) can0 2C9#00A32C0A00431000
(1682279898.206940) can0 2A1#00A32C0A00452000
(1682279898.208922) can0 231#00A32C0A00443100
(1682279898.210769) can0 2D0#00A32C0A00444200
(1682279898.211248) can0 00042F11#002B
(1682279898.212095) can0 00BD0111#002B0D7E6C
(1682279898.212773) can0 22F#00A32C2700000E00
(1682279898.265876) can0 368#80FF00010000
(1682279898.298927) can0 3AC#C0FF00000000
(1682279898.341570) can0 685#00
(1682279898.342052) can0 085#00140000001AE876
(1682279898.342416) can0 185#00000000
(1682279898.342859) can0 285#00A2852B00441201
(1682279898.410215) can0 32C#80FF00010000
(1682279898.454134) can0 31A#C0FF00000000
(1682279898.491965) can0 37D#80FF00260000
(1682279898.575863) can0 340#80FF00010000
(1682279898.583295) can0 367#C0FF00000000
(1682279898.595267) can0 3D0#00
(1682279898.595800) can0 3A1#00
(1682279898.603074) can0 32F#00
(1682279898.615818) can0 331#00
(1682279898.620217) can0 3C9#00
(1682279898.632958) can0 35C#80FF00010000
(1682279898.818096) can0 3E3#C0FF00000000
(1682279898.826170) can0 37D#80FF00290000
(1682279898.832792) can0 02145C11#002B
(1682279898.833516) can0 01718511#002B0D8312
(1682279898.839874) can0 601#00
(1682279898.840697) can0 001#00180000001B2EAD
(1682279898.841348) can0 101#00000000
(1682279898.842091) can0 201#00B8012400000100
(1682279898.850124) can0 701#00092ADCFFFF0000
(1682279898.997639) can0 385#00
(1682279899.117943) can0 301#0040
(1682279899.136572) can0 62C#00
(1682279899.137063) can0 067#02140000001B3004
(1682279899.137525) can0 0AC#02140000001B3004
(1682279899.138005) can0 01A#02140000001B3004
(1682279899.138485) can0 068#02140000001B3004
(1682279899.138974) can0 05C#02140000001B3004
(1682279899.141853) can0 02C#02140000001B3004
(1682279899.142829) can0 040#02140000001B3004
(1682279899.145273) can0 0E3#02140000001B3004
(1682279899.147206) can0 07D#02140000001B3004
(1682279899.148933) can0 0C9#02140000001B3004
(1682279899.150826) can0 0A1#02140000001B3004
(1682279899.152958) can0 031#02140000001B3004
(1682279899.155074) can0 0D0#02140000001B3004
(1682279899.156865) can0 02F#02140000001B3004
(1682279899.158658) can0 1E3#00000000
(1682279899.160385) can0 37D#80FF00280000
(1682279899.161739) can0 167#00000000
(1682279899.162656) can0 1AC#00000000
(1682279899.164672) can0 11A#00000000
(1682279899.166698) can0 168#00000000
(1682279899.168671) can0 15C#00000000
(1682279899.170667) can0 12C#00000000
(1682279899.172826) can0 140#00000000
(1682279899.174913) can0 17D#00000000
(1682279899.176669) can0 1C9#00000000
(1682279899.178637) can0 1A1#00000000
(1682279899.181679) can0 131#00000000
(1682279899.182780) can0 1D0#00000000
(1682279899.184889) can0 12F#00000000
(1682279899.186928) can0 2E3#00A32C2100691011
(1682279899.188776) can0 267#00A32C2100002011
(1682279899.190783) can0 2AC#00A32C2100603111
(1682279899.192897) can0 21A#00A32C2100604211
(1682279899.195052) can0 268#00A32C1E003D1011
(1682279899.196820) can0 25C#00A32C1E008F2011
(1682279899.198924) can0 22C#00A32C1E00033019
(1682279899.200786) can0 240#00A32C1E00044011
(1682279899.202800) can0 27D#00A32C1E00055019
(1682279899.205044) can0 2C9#00A32C0A00431000
(1682279899.206812) can0 2A1#00A32C0A00452000
(1682279899.208905) can0 231#00A32C0A00443100
(1682279899.211830) can0 2D0#00A32C0A00444200
(1682279899.212771) can0 22F#00A32C2700000E00
(1682279899.266935) can0 368#80FF00010000
(1682279899.300056) can0 3AC#C0FF00000000
(1682279899.341585) can0 685#00
(1682279899.342057) can0 085#00140000001AE876
(1682279899.342398) can0 185#00000000
(1682279899.342868) can0 285#00A2852B00441201
(1682279899.412253) can0 32C#80FF00010000
(1682279899.455276) can0 31A#C0FF00000000
(1682279899.494064) can0 37D#80FF00260000
(1682279899.576953) can0 340#80FF00010000
(1682279899.583886) can0 367#C0FF00000000
(1682279899.595815) can0 3D0#00
(1682279899.596884) can0 3A1#00
(1682279899.604173) can0 32F#00
(1682279899.616891) can0 331#00
(1682279899.621825) can0 3C9#00
(1682279899.634015) can0 35C#80FF00010000
(1682279899.711262) can0 00042F11#002B
(1682279899.712069) can0 00BD0111#002B0D81EF
(1682279899.818997) can0 3E3#C0FF00000000
(1682279899.828189) can0 37D#80FF00290000
(1682279899.839912) can0 601#00
(1682279899.840520) can0 001#00180000001B2EAD
(1682279899.841230) can0 101#00000000
(1682279899.841927) can0 201#00B8012400000100
(1682279899.842786) can0 02145C11#002B
(1682279899.843499) can0 01718511#002B0D82E0
(1682279899.850183) can0 701#00092ADDFFFF0000
(1682279899.998657) can0 385#00
(1682279900.118951) can0 301#0040
(1682279900.136722) can0 62C#00
(1682279900.137203) can0 02C#02140000001B3004
(1682279900.137684) can0 040#02140000001B3004
(1682279900.138157) can0 0E3#02140000001B3004
(1682279900.138626) can0 067#02140000001B3004
(1682279900.139116) can0 0AC#02140000001B3004
(1682279900.141837) can0 01A#02140000001B3004
(1682279900.142952) can0 068#02140000001B3004
(1682279900.144820) can0 05C#02140000001B3004
(1682279900.147035) can0 07D#02140000001B3004
(1682279900.148809) can0 0C9#02140000001B3004
(1682279900.151844) can0 0A1#02140000001B3004
(1682279900.152813) can0 031#02140000001B3004
(1682279900.154809) can0 0D0#02140000001B3004
(1682279900.156981) can0 02F#02140000001B3004
(1682279900.158790) can0 1E3#00000000
(1682279900.161708) can0 167#00000000
(1682279900.162808) can0 1AC#00000000
(1682279900.164682) can0 11A#00000000
(1682279900.166694) can0 168#00000000
(1682279900.168677) can0 15C#00000000
(1682279900.170671) can0 12C#00000000
(1682279900.172668) can0 140#00000000
(1682279900.174700) can0 17D#00000000
(1682279900.176694) can0 1C9#00000000
(1682279900.178642) can0 1A1#00000000
(1682279900.180645) can0 131#00000000
(1682279900.182643) can0 1D0#00000000
(1682279900.184878) can0 12F#00000000
(1682279900.186919) can0 2E3#00A32C2100691011
(1682279900.188914) can0 267#00A32C2100002011
(1682279900.190770) can0 2AC#00A32C2100603111
(1682279900.192228) can0 37D#80FF00280000
(1682279900.192772) can0 21A#00A32C2100604211
(1682279900.195045) can0 268#00A32C1E003D1011
(1682279900.196810) can0 25C#00A32C1E008F2011
(1682279900.198918) can0 22C#00A32C1E00033019
(1682279900.200784) can0 240#00A32C1E00044011
(1682279900.202910) can0 27D#00A32C1E00055019
(1682279900.204772) can0 2C9#00A32C0A00431000
(1682279900.206809) can0 2A1#00A32C0A00452000
(1682279900.208908) can0 231#00A32C0A00443100
(1682279900.210771) can0 2D0#00A32C0A00444200
(1682279900.212777) can0 22F#00A32C2700000E00
(1682279900.267879) can0 368#80FF00010000
(1682279900.302018) can0 3AC#C0FF00000000
(1682279900.341590) can0 685#00
(1682279900.342062) can0 085#00140000001AE876
(1682279900.342413) can0 185#00000000
(1682279900.342875) can0 285#00A2852B00441201
(1682279900.413200) can0 32C#80FF00010000
(1682279900.456160) can0 31A#C0FF00000000
(1682279900.525956) can0 37D#80FF00270000
(1682279900.578306) can0 340#80FF00010000
(1682279900.585361) can0 367#C0FF00000000
(1682279900.596597) can0 3D0#00
(1682279900.597770) can0 3A1#00
(1682279900.605143) can0 32F#00
(1682279900.617777) can0 331#00
(1682279900.622727) can0 3C9#00
(1682279900.635015) can0 35C#80FF00010000
(1682279900.820156) can0 3E3#C0FF00000000
(1682279900.839932) can0 601#00
(1682279900.840548) can0 001#00180000001B2EAD
(1682279900.841213) can0 101#00000000
(1682279900.841934) can0 201#00B8012400000100
(1682279900.850162) can0 701#00092ADEFFFF0000
(1682279900.852813) can0 02145C11#002B
(1682279900.853521) can0 01718511#002B0D8060
(1682279900.860211) can0 37D#80FF00290000
(1682279900.999649) can0 385#00
(1682279901.119980) can0 301#0040
(1682279901.136717) can0 62C#00
(1682279901.137194) can0 05C#02140000001B3004
(1682279901.137673) can0 02C#02140000001B3004
(1682279901.138157) can0 040#02140000001B3004
(1682279901.138632) can0 0E3#02140000001B3004
(1682279901.139127) can0 067#02140000001B3004
(1682279901.141845) can0 0AC#02140000001B3004
(1682279901.142937) can0 01A#02140000001B3004
(1682279901.144824) can0 068#02140000001B3004
(1682279901.147063) can0 07D#02140000001B3004
(1682279901.148818) can0 0C9#02140000001B3004
(1682279901.151841) can0 0A1#02140000001B3004
(1682279901.152818) can0 031#02140000001B3004
(1682279901.154818) can0 0D0#02140000001B3004
(1682279901.156984) can0 02F#02140000001B3004
(1682279901.158792) can0 1E3#00000000
(1682279901.160669) can0 167#00000000
(1682279901.162814) can0 1AC#00000000
(1682279901.164671) can0 11A#00000000
(1682279901.166688) can0 168#00000000
(1682279901.168667) can0 15C#00000000
(1682279901.171712) can0 12C#00000000
(1682279901.172812) can0 140#00000000
(1682279901.174658) can0 17D#00000000
(1682279901.176688) can0 1C9#00000000
(1682279901.178659) can0 1A1#00000000
(1682279901.181678) can0 131#00000000
(1682279901.182779) can0 1D0#00000000
(1682279901.184886) can0 12F#00000000
(1682279901.186930) can0 2E3#00A32C2100691011
(1682279901.188778) can0 267#00A32C2100002011
(1682279901.190781) can0 2AC#00A32C2100603111
(1682279901.192894) can0 21A#00A32C2100604211
(1682279901.194149) can0 37D#80FF00280000
(1682279901.195045) can0 268#00A32C1E003D1011
(1682279901.196817) can0 25C#00A32C1E008F2011
(1682279901.198922) can0 22C#00A32C1E00033019
(1682279901.200780) can0 240#00A32C1E00044011
(1682279901.202910) can0 27D#00A32C1E00055019
(1682279901.204774) can0 2C9#00A32C0A00431000
(1682279901.206935) can0 2A1#00A32C0A00452000
(1682279901.208921) can0 231#00A32C0A00443100
(1682279901.210775) can0 2D0#00A32C0A00444200
(1682279901.211319) can0 00042F11#002B
(1682279901.212109) can0 00BD0111#002B0D7C0D
(1682279901.212903) can0 22F#00A32C2700000E00
(1682279901.269190) can0 368#80FF00010000
(1682279901.303316) can0 3AC#C0FF00000000
(1682279901.341593) can0 685#00
(1682279901.342067) can0 085#00140000001AE876
(1682279901.342421) can0 185#00000000
(1682279901.342876) can0 285#00A2852B00441201
(1682279901.414103) can0 32C#80FF00010000
(1682279901.457104) can0 31A#C0FF00000000
(1682279901.527991) can0 37D#80FF00290000
(1682279901.579268) can0 340#80FF00010000
(1682279901.586275) can0 367#C0FF00000000
(1682279901.597702) can0 3D0#00
(1682279901.598760) can0 3A1#00
(1682279901.606080) can0 32F#00
(1682279901.618782) can0 331#00
(1682279901.623725) can0 3C9#00
(1682279901.636000) can0 35C#80FF00010000
(1682279901.821831) can0 3E3#C0FF00000000
(1682279901.839953) can0 601#00
(1682279901.840772) can0 001#00180000001B2EAD
(1682279901.841414) can0 101#00000000
(1682279901.842161) can0 201#00B8012400000100
(1682279901.850188) can0 701#00092ADFFFFF0000
(1682279901.862192) can0 37D#80FF00280000
(1682279901.862851) can0 02145C11#002B
(1682279901.863580) can0 01718511#002B0D8470
(1682279902.000614) can0 385#00
(1682279902.121044) can0 301#0040
(1682279902.136721) can0 62C#00
(1682279902.137192) can0 0E3#02140000001B3004
(1682279902.137672) can0 067#02140000001B3004
(1682279902.138147) can0 0AC#02140000001B3004
(1682279902.138627) can0 01A#02140000001B3004
(1682279902.139122) can0 068#02140000001B3004
(1682279902.141863) can0 05C#02140000001B3004
(1682279902.142952) can0 02C#02140000001B3004
(1682279902.144826) can0 040#02140000001B3004
(1682279902.146998) can0 07D#02140000001B3004
(1682279902.148949) can0 0C9#02140000001B3004
(1682279902.151863) can0 0A1#02140000001B3004
(1682279902.152952) can0 031#02140000001B3004
(1682279902.154828) can0 0D0#02140000001B3004
(1682279902.156846) can0 02F#02140000001B3004
(1682279902.158817) can0 1E3#00000000
(1682279902.160679) can0 167#00000000
(1682279902.162819) can0 1AC#00000000
(1682279902.164939) can0 11A#00000000
(1682279902.166843) can0 168#00000000
(1682279902.168819) can0 15C#00000000
(1682279902.171704) can0 12C#00000000
(1682279902.172821) can0 140#00000000
(1682279902.174923) can0 17D#00000000
(1682279902.176695) can0 1C9#00000000
(1682279902.178664) can0 1A1#00000000
(1682279902.181697) can0 131#00000000
(1682279902.182789) can0 1D0#00000000
(1682279902.184903) can0 12F#00000000
(1682279902.186795) can0 2E3#00A32C2100691011
(1682279902.188917) can0 267#00A32C2100002011
(1682279902.191817) can0 2AC#00A32C2100603111
(1682279902.192770) can0 21A#00A32C2100604211
(1682279902.195047) can0 268#00A32C1E003D1011
(1682279902.196822) can0 25C#00A32C1E008F2011
(1682279902.198928) can0 22C#00A32C1E00033019
(1682279902.201828) can0 240#00A32C1E00044011
(1682279902.202251) can0 37D#80FF00270000
(1682279902.202940) can0 27D#00A32C1E00055019
(1682279902.205036) can0 2C9#00A32C0A00431000
(1682279902.206808) can0 2A1#00A32C0A00452000
(1682279902.208919) can0 231#00A32C0A00443100
(1682279902.211820) can0 2D0#00A32C0A00444200
(1682279902.212780) can0 22F#00A32C2700000E00
(1682279902.269980) can0 368#80FF00010000
(1682279902.304026) can0 3AC#C0FF00000000
(1682279902.341642) can0 685#00
(1682279902.342115) can0 085#00140000001AE876
(1682279902.342418) can0 185#00000000
(1682279902.342923) can0 285#00A2852B00441201
(1682279902.415307) can0 32C#80FF00010000
(1682279902.458171) can0 31A#C0FF00000000
(1682279902.536223) can0 37D#80FF00290000
(1682279902.580478) can0 340#80FF00010000
(1682279902.586781) can0 367#C0FF00000000
(1682279902.598768) can0 3D0#00
(1682279902.599938) can0 3A1#00
(1682279902.607188) can0 32F#00
(1682279902.619975) can0 331#00
(1682279902.624924) can0 3C9#00
(1682279902.637087) can0 35C#80FF00010000
(1682279902.711342) can0 00042F11#002B
(1682279902.712062) can0 00BD0111#002B0D85B4
(1682279902.823337) can0 3E3#C0FF00000000
(1682279902.839972) can0 601#00
(1682279902.840793) can0 001#00180000001B2EAD
(1682279902.841446) can0 101#00000000
(1682279902.842193) can0 201#00B8012400000100
(1682279902.850226) can0 701#00092AE0FFFF0000
(1682279902.872848) can0 02145C11#002B
(1682279902.873550) can0 01718511#002B0D8620
(1682279903.001668) can0 385#00
(1682279903.122019) can0 301#0040
(1682279903.136715) can0 62C#00
(1682279903.137198) can0 0E3#02140000001B3004
(1682279903.137680) can0 067#02140000001B3004
(1682279903.138146) can0 0AC#02140000001B3004
(1682279903.138625) can0 01A#02140000001B3004
(1682279903.139106) can0 068#02140000001B3004
(1682279903.141863) can0 05C#02140000001B3004
(1682279903.142962) can0 02C#02140000001B3004
(1682279903.144831) can0 040#02140000001B3004
(1682279903.146859) can0 07D#02140000001B3004
(1682279903.148960) can0 0C9#02140000001B3004
(1682279903.150826) can0 0A1#02140000001B3004
(1682279903.152974) can0 031#02140000001B3004
(1682279903.155074) can0 0D0#02140000001B3004
(1682279903.155893) can0 37D#80FF00280000
(1682279903.156868) can0 02F#02140000001B3004
(1682279903.158823) can0 1E3#00000000
(1682279903.161725) can0 167#00000000
(1682279903.162675) can0 1AC#00000000
(1682279903.164937) can0 11A#00000000
(1682279903.166831) can0 168#00000000
(1682279903.168686) can0 15C#00000000
(1682279903.170693) can0 12C#00000000
(1682279903.172689) can0 140#00000000
(1682279903.174686) can0 17D#00000000
(1682279903.176712) can0 1C9#00000000
(1682279903.178686) can0 1A1#00000000
(1682279903.181717) can0 131#00000000
(1682279903.182817) can0 1D0#00000000
(1682279903.184644) can0 12F#00000000
(1682279903.186797) can0 2E3#00A32C2100691011
(1682279903.188790) can0 267#00A32C2100002011
(1682279903.191801) can0 2AC#00A32C2100603111
(1682279903.192926) can0 21A#00A32C2100604211
(1682279903.194793) can0 268#00A32C1E003D1011
(1682279903.196957) can0 25C#00A32C1E008F2011
(1682279903.198805) can0 22C#00A32C1E00033019
(1682279903.200801) can0 240#00A32C1E00044011
(1682279903.202930) can0 27D#00A32C1E00055019
(1682279903.204801) can0 2C9#00A32C0A00431000
(1682279903.206945) can0 2A1#00A32C0A00452000
(1682279903.208920) can0 231#00A32C0A00443100
(1682279903.210783) can0 2D0#00A32C0A00444200
(1682279903.212801) can0 22F#00A32C2700000E00
(1682279903.272083) can0 368#80FF00010000
